Time_s,Time_ns,Vin_V,Vout_V,Vout_AC_V
1.16109069e-07,0.3467990227415593,7.52194184e-06,-18.6907775,-17.33398056684326
1.16832584e-07,1.0703140227415606,2.30284621e-05,-18.7084001,-17.351603166843258
1.17556098e-07,1.7938280227415582,3.79679453e-05,-18.7259624,-17.36916546684326
1.18249529e-07,2.487259022741565,5.14134415e-05,-18.6513683,-17.29457136684326
1.18926976e-07,3.1647060227415587,6.34279627e-05,-18.355094,-16.99829706684326
1.19558814e-07,3.7965440227415685,7.34040278e-05,-17.9134173,-16.55662036684326
1.20223621e-07,4.461351022741569,8.24085691e-05,-17.3900288,-16.03323186684326
1.20639382e-07,4.877112022741572,8.7179304e-05,-17.0575157,-15.70071876684326
1.21166098e-07,5.403828022741562,9.21995974e-05,-16.6370262,-15.28022926684326
1.21421558e-07,5.659288022741562,9.42042199e-05,-16.4325493,-15.075752366843261
1.21591045e-07,5.828775022741561,9.53746807e-05,-16.2965812,-14.939784266843258
1.2175837e-07,5.996100022741553,9.64035558e-05,-16.1622478,-14.805450866843259
1.21906786e-07,6.144516022741562,9.72097398e-05,-16.0431409,-14.68634396684326
1.21997657e-07,6.235387022741568,9.76535833e-05,-15.9702575,-14.61346056684326
1.22075846e-07,6.313576022741574,9.8005071e-05,-15.9075683,-14.550771366843259
1.2214623e-07,6.383960022741564,9.82973179e-05,-15.8511443,-14.49434736684326
1.22216977e-07,6.454707022741574,9.85679446e-05,-15.794421,-14.43762406684326
1.22305639e-07,6.54336902274156,9.88742619e-05,-15.7233072,-14.36651026684326
1.2238725e-07,6.624980022741566,9.91238406e-05,-15.6578191,-14.301022166843259
1.22465296e-07,6.703026022741557,9.93334072e-05,-15.5951716,-14.23837466684326
1.22548088e-07,6.785818022741558,9.95245472e-05,-15.5287053,-14.17190836684326
1.22648393e-07,6.88612302274156,9.97130345e-05,-15.4481918,-14.09139486684326
1.2276623e-07,7.003960022741552,9.98740589e-05,-15.353636,-13.99683906684326
1.2294608e-07,7.1838100227415564,9.99937879e-05,-15.2093512,-13.85255426684326
1.23064436e-07,7.302166022741552,9.99894161e-05,-15.1143907,-13.757593766843259
1.23166649e-07,7.404379022741567,9.99325143e-05,-15.0323577,-13.67556076684326
1.23278259e-07,7.51598902274155,9.98141805e-05,-14.9427554,-13.585958466843259
1.23394231e-07,7.631961022741553,9.96291382e-05,-14.8496337,-13.49283676684326
1.23508451e-07,7.746181022741554,9.93851584e-05,-14.7579237,-13.401126766843259
1.23639621e-07,7.877351022741552,9.90295962e-05,-14.6526296,-13.295832666843259
1.23786621e-07,8.024351022741559,9.85357096e-05,-14.5346546,-13.17785766684326
1.2396207e-07,8.199800022741561,9.78149249e-05,-14.3938453,-13.03704836684326
1.24111658e-07,8.34938802274156,9.70882671e-05,-14.273763,-12.91696606684326
1.24267371e-07,8.505101022741568,9.6223097e-05,-14.1487316,-12.79193466684326
1.24461818e-07,8.699548022741558,9.49884517e-05,-13.9925845,-12.635787566843259
1.24682273e-07,8.920003022741552,9.33840637e-05,-13.8155711,-12.45877416684326
1.24897483e-07,9.135213022741551,9.16115121e-05,-13.6427886,-12.285991666843259
1.25162497e-07,9.400227022741559,8.91544757e-05,-13.4300102,-12.07321326684326
1.25500582e-07,9.738312022741562,8.5592849e-05,-13.1585254,-11.80172846684326
1.25879932e-07,10.117662022741568,8.10487931e-05,-12.8538887,-11.49709176684326
1.26273125e-07,10.510855022741575,7.57594384e-05,-12.5381381,-11.181341166843259
1.2686858e-07,11.106310022741571,6.67124911e-05,-12.0599604,-10.70316346684326
1.27495278e-07,11.733008022741556,5.59914279e-05,-11.5566872,-10.19989026684326
1.28218793e-07,12.456523022741571,4.23406952e-05,-10.9756812,-9.61888426684326
1.28942307e-07,13.180037022741555,2.76473943e-05,-10.394709,-9.03791206684326
1.29665821e-07,13.903551022741567,1.22733228e-05,-9.81378076,-8.45698382684326
1.30193371e-07,14.431101022741565,8.50891902e-07,-9.39022327,-8.03342633684326
1.30687994e-07,14.925724022741553,-9.87157951e-06,-8.99312141,-7.636324476843259
1.3103548e-07,15.273210022741566,-1.7343687e-05,-8.71416111,-7.357364176843258
1.31432816e-07,15.670546022741567,-2.576436e-05,-8.39520253,-7.038405596843259
1.3175191e-07,15.989640022741554,-3.23910617e-05,-8.13907141,-6.782274476843258
1.32100825e-07,16.338555022741563,-3.94580887e-05,-7.85902396,-6.502227026843259
1.32437687e-07,16.67541702274155,-4.60667076e-05,-7.5886706,-6.231873666843259
1.32825323e-07,17.06305302274157,-5.33645057e-05,-7.27758088,-5.920783946843259
1.33242889e-07,17.480619022741553,-6.08017475e-05,-6.94137095,-5.584574016843258
1.33741628e-07,17.97935802274157,-6.90254447e-05,-6.53692906,-5.180132126843259
1.34087731e-07,18.325461022741568,-7.4262518e-05,-6.25566342,-4.898866486843259
1.34409837e-07,18.64756702274155,-7.87605429e-05,-5.99498212,-4.638185186843259
1.34747824e-07,18.98555402274157,-8.30660153e-05,-5.72268716,-4.365890226843259
1.35019365e-07,19.257095022741563,-8.62022129e-05,-5.50408523,-4.147288296843259
1.35401008e-07,19.638738022741574,-9.01014633e-05,-5.19625184,-3.839454906843259
1.35822074e-07,20.05980402274155,-9.36852491e-05,-4.85645238,-3.499655446843259
1.36303794e-07,20.54152402274156,-9.68242707e-05,-4.46817612,-3.1113791868432585
1.36732075e-07,20.969805022741554,-9.87273411e-05,-4.12324167,-2.7664447368432583
1.37129062e-07,21.36679202274156,-9.97298486e-05,-3.80356187,-2.446764936843259
1.37568451e-07,21.806181022741562,-9.99760808e-05,-3.44982215,-2.093025216843259
1.37987419e-07,22.22514902274155,-9.93641111e-05,-3.11267319,-1.755876256843259
1.38480707e-07,22.718437022741565,-9.75912924e-05,-2.71589503,-1.3590980968432589
1.3896597e-07,23.20370002274156,-9.47560359e-05,-2.32572965,-0.9689327168432589
1.39689484e-07,23.927214022741573,-8.85901489e-05,-1.74429016,-0.38749322684325893
1.40412999e-07,24.65072902274156,-8.02428786e-05,-1.16319315,0.1936037831567412
1.41136513e-07,25.37424302274157,-6.99197626e-05,-0.582425752,0.7743711811567411
1.41659746e-07,25.897476022741554,-6.1365172e-05,-0.162623847,1.194173086156741
1.42257303e-07,26.495033022741552,-5.0634731e-05,0.316610655,1.6734075881567412
1.42547728e-07,26.78545802274157,-4.51004543e-05,0.549452816,1.906249749156741
1.42725291e-07,26.96302102274156,-4.16271197e-05,0.691786889,2.048583822156741
1.42938661e-07,27.17639102274156,-3.73720022e-05,0.862801926,2.2195988591567413
1.4310366e-07,27.341390022741557,-3.40260671e-05,0.995031579,2.3518285121567413
1.43244154e-07,27.481884022741575,-3.11424741e-05,1.10761081,2.464407743156741
1.43356239e-07,27.59396902274156,-2.88210658e-05,1.19741602,2.554212953156741
1.43451001e-07,27.68873102274157,-2.68450498e-05,1.27333486,2.630131793156741
1.43545586e-07,27.783316022741552,-2.48614133e-05,1.34910382,2.705900753156741
1.43658747e-07,27.896477022741575,-2.24744797e-05,1.43974524,2.796542173156741
1.43739993e-07,27.977723022741554,-2.0752293e-05,1.50481786,2.861614793156741
1.43829985e-07,28.067715022741574,-1.88372126e-05,1.57689217,2.933689103156741
1.43914898e-07,28.152628022741567,-1.7023606e-05,1.64489773,3.001694663156741
1.44025734e-07,28.263464022741573,-1.46476978e-05,1.73366478,3.090461713156741
1.44158768e-07,28.396498022741557,-1.17848881e-05,1.84020544,3.1970023731567414
1.4424224e-07,28.47997002274156,-9.9834449e-06,1.90704984,3.2638467731567413
1.44316211e-07,28.55394102274157,-8.38428893e-06,1.96628073,3.323077663156741
1.44386044e-07,28.62377402274157,-6.87260169e-06,2.02219241,3.378989343156741
1.44456165e-07,28.693895022741557,-5.35309659e-06,2.07832824,3.4351251731567407
1.44526162e-07,28.763892022741576,-3.83503668e-06,2.13435908,3.4911560131567407
1.44597704e-07,28.835434022741556,-2.28255854e-06,2.19162177,3.5484187031567407
1.44676061e-07,28.913791022741563,-5.815649e-07,2.25433638,3.611133313156741
1.44763166e-07,29.000896022741568,1.30949742e-06,2.32405145,3.680848383156741
1.44850343e-07,29.088073022741565,3.20164817e-06,2.39382538,3.7506223131567413
1.4495745e-07,29.195180022741575,5.52476069e-06,2.4795538,3.836350733156741
1.45078046e-07,29.315776022741566,8.13678392e-06,2.57607561,3.9328725431567415
1.45235271e-07,29.473001022741556,1.15335195e-05,2.70189762,4.058694553156741
1.45342364e-07,29.580094022741566,1.38397253e-05,2.78758506,4.144381993156741
1.4543728e-07,29.675010022741553,1.58775021e-05,2.86351897,4.220315903156741
1.455369e-07,29.774630022741558,1.80089999e-05,2.94320737,4.300004303156741
1.45645194e-07,29.882924022741555,2.03165074e-05,3.02982928,4.386626213156741
1.45756146e-07,29.99387602274156,2.2668985e-05,3.11857557,4.475372503156741
1.45873302e-07,30.111032022741572,2.5138713e-05,3.21228468,4.569081613156741
1.46009803e-07,30.247533022741557,2.79956047e-05,3.32146273,4.678259663156741
1.46153781e-07,30.39151102274156,3.09822978e-05,3.43660981,4.7934067431567415
1.46280768e-07,30.518498022741554,3.3591507e-05,3.53815523,4.894952163156741
1.4642091e-07,30.658640022741565,3.64412954e-05,3.65020638,5.0070033131567415
1.46550743e-07,30.788473022741556,3.90514088e-05,3.75400585,5.110802783156741
1.46720697e-07,30.958427022741557,4.24208825e-05,3.8898718,5.246668733156741
1.46912573e-07,31.15030302274156,4.61553403e-05,4.04324771,5.4000446431567415
1.47033389e-07,31.271119022741562,4.84660923e-05,4.13981093,5.496607863156742
1.47143424e-07,31.381154022741576,5.05416691e-05,4.22774628,5.584543213156741
1.47268475e-07,31.506205022741558,5.28654037e-05,4.32766488,5.684461813156742
1.47409507e-07,31.647237022741567,5.54392827e-05,4.44033152,5.797128453156741
1.47615048e-07,31.852778022741568,5.90967402e-05,4.60451227,5.961309203156741
1.47850808e-07,32.088538022741574,6.31466056e-05,4.79284295,6.149639883156741
1.48095937e-07,32.33366702274155,6.71818851e-05,4.98866631,6.3454632431567415
1.48358277e-07,32.596007022741574,7.12894602e-05,5.1981856,6.554982533156742
1.48662942e-07,32.90067202274155,7.5768725e-05,5.44140131,6.798198243156741
1.49046784e-07,33.28451402274157,8.09380552e-05,5.74774092,7.104537853156741
1.49434055e-07,33.67178502274157,8.55841563e-05,6.05677804,7.4135749731567415
1.49789246e-07,34.02697602274157,8.93145024e-05,6.34015155,7.696948483156741
1.50329245e-07,34.56697502274157,9.39623078e-05,6.77078906,8.12758599315674
1.50922825e-07,35.16055502274157,9.75810277e-05,7.24392892,8.60072585315674
1.51646339e-07,35.884069022741556,9.97995992e-05,7.82029767,9.17709460315674
1.52369853e-07,36.607583022741565,9.95607736e-05,8.39608474,9.75288167315674
1.52972497e-07,37.21022702274157,9.74883738e-05,8.75618594,10.11298287315674
1.5348125e-07,37.71898002274157,9.44393367e-05,8.88380653,10.24060346315674
1.53966309e-07,38.20403902274156,9.04597822e-05,8.86048882,10.217285753156741
1.5422765e-07,38.46538002274156,8.78969237e-05,8.80880516,10.16560209315674
1.54490789e-07,38.728519022741565,8.5030646e-05,8.74870491,10.105501843156741
1.54812543e-07,39.05027302274157,8.11498815e-05,8.6776786,10.03447553315674
1.55227505e-07,39.46523502274156,7.55634004e-05,8.58905594,9.94585287315674
1.5571265e-07,39.95038002274155,6.82584516e-05,8.48396951,9.84076644315674
1.56100827e-07,40.338557022741576,6.18645572e-05,8.39937097,9.75616790315674
1.56541406e-07,40.779136022741554,5.40780731e-05,8.30454198,9.66133891315674
1.5694516e-07,41.18289002274157,4.65064431e-05,8.21650066,9.57329759315674
1.57229493e-07,41.467223022741564,4.09564741e-05,8.15179113,9.50858806315674
1.57557487e-07,41.79521702274157,3.43618387e-05,8.0733008,9.43009773315674
1.57898765e-07,42.13649502274156,2.73157251e-05,7.98931091,9.34610784315674
1.58206362e-07,42.44409202274156,2.08354598e-05,7.9138251,9.27062203315674
1.58603026e-07,42.84075602274156,1.23458103e-05,7.81783325,9.17463018315674
1.5905101e-07,43.28874002274156,2.6510576e-06,7.70998403,9.066780963156742
1.59615563e-07,43.85329302274156,-9.59066666e-06,7.57412952,8.93092645315674
1.60339077e-07,44.57680702274157,-2.50439242e-05,7.40100828,8.757805213156741
1.61062591e-07,45.30032102274155,-3.98805172e-05,7.2292263,8.586023233156741
1.61786105e-07,46.023835022741565,-5.37351197e-05,7.0585953,8.41539223315674
1.62509619e-07,46.747349022741574,-6.62665853e-05,6.88908486,8.245881793156741
1.63233134e-07,47.470864022741566,-7.71663479e-05,6.72072716,8.077524093156741
1.63956648e-07,48.194378022741574,-8.61660191e-05,6.5535166,7.910313533156741
1.64680162e-07,48.917892022741555,-9.30439971e-05,6.38743929,7.744236223156741
1.65403676e-07,49.64140602274157,-9.76309235e-05,6.22248919,7.579286123156741
1.6612719e-07,50.36492002274155,-9.98138528e-05,6.05866101,7.415457943156741
1.66850705e-07,51.08843502274157,-9.9539034e-05,5.89594786,7.252744793156741
1.67574219e-07,51.81194902274155,-9.68132341e-05,5.73434289,7.091139823156741
1.68297733e-07,52.53546302274156,-9.17035714e-05,5.57383956,6.930636493156741
1.69021247e-07,53.258977022741576,-8.43358627e-05,5.41443132,6.771228253156742
1.69744761e-07,53.982491022741556,-7.48915254e-05,5.25611158,6.612908513156741
1.70468276e-07,54.706006022741576,-6.36031104e-05,5.09887382,6.455670753156741
1.7119179e-07,55.429520022741556,-5.07485759e-05,4.94271153,6.299508463156742
1.71915304e-07,56.153034022741565,-3.66444432e-05,4.78761825,6.144415183156742
1.72638818e-07,56.87654802274155,-2.16380028e-05,4.63358753,5.990384463156741
1.73362332e-07,57.60006202274156,-6.09876296e-06,4.48061298,5.837409913156741
1.74085847e-07,58.32357702274155,9.5906486e-06,4.32868822,5.685485153156741
1.74809361e-07,59.04709102274156,2.50439066e-05,4.17780692,5.534603853156741
1.75532875e-07,59.77060502274157,3.98805006e-05,4.02796279,5.3847597231567415
1.76256389e-07,60.49411902274156,5.37351044e-05,3.87914956,5.235946493156741
1.76979903e-07,61.217633022741566,6.62665717e-05,3.73136101,5.088157943156741
1.77703418e-07,61.94114802274156,7.71663363e-05,3.58459093,4.941387863156741
1.78426932e-07,62.66466202274157,8.61660098e-05,3.43883317,4.795630103156741
1.79150446e-07,63.388176022741554,9.30439905e-05,3.29408161,4.650878543156741
1.7987396e-07,64.11169002274157,9.76309196e-05,3.15033016,4.5071270931567415
1.80597474e-07,64.83520402274158,9.98138516e-05,3.00757277,4.364369703156741
1.81320989e-07,65.55871902274156,9.95390357e-05,2.86580338,4.222600313156741
1.82044503e-07,66.28223302274158,9.68132387e-05,2.72500845,4.081805383156741
1.82768017e-07,67.00574702274156,9.17035787e-05,2.58518086,3.941977793156741
1.83491531e-07,67.72926102274157,8.43358725e-05,2.44632595,3.8031228831567407
1.84215045e-07,68.45277502274155,7.48915374e-05,2.30844334,3.6652402731567415
1.84917234e-07,69.15496402274155,6.39597185e-05,2.17554481,3.532341743156741
1.85640748e-07,69.87847802274156,5.11469914e-05,2.0395481,3.3963450331567415
1.86364262e-07,70.60199202274157,3.70748558e-05,1.90449774,3.2612946731567414
1.87087776e-07,71.32550602274156,2.20898143e-05,1.77038891,3.127185843156741
1.87811291e-07,72.04902102274157,6.56084831e-06,1.63721591,2.9940128431567414
1.88381017e-07,72.61874702274157,-5.80029824e-06,1.53300487,2.8898018031567414
1.88719546e-07,72.95727602274157,-1.31153624e-05,1.47135521,2.828152143156741
1.88915899e-07,73.15362902274157,-1.73282893e-05,1.43569015,2.7924870831567414
1.89079041e-07,73.31677102274158,-2.08050199e-05,1.40610913,2.7629060631567413
1.89227168e-07,73.46489802274156,-2.39392849e-05,1.37929109,2.736088023156741
1.89334088e-07,73.57181802274155,-2.61864337e-05,1.35995748,2.716754413156741
1.89414676e-07,73.65240602274156,-2.78709075e-05,1.34539849,2.7021954231567413
1.89486023e-07,73.72375302274158,-2.93551132e-05,1.33251853,2.689315463156741
1.89557953e-07,73.79568302274156,-3.08443349e-05,1.31954219,2.6763391231567413
1.89623306e-07,73.86103602274156,-3.21908526e-05,1.30776041,2.664557343156741
1.89731064e-07,73.96879402274155,-3.43968079e-05,1.2883501,2.645147033156741
1.89830604e-07,74.06833402274155,-3.64178213e-05,1.2704382,2.6272351331567414
1.89935485e-07,74.17321502274156,-3.85288695e-05,1.25158381,2.608380743156741
1.90057083e-07,74.29481302274156,-4.09513282e-05,1.22974817,2.586545103156741
1.90198934e-07,74.43666402274155,-4.37410601e-05,1.20430839,2.561105323156741
1.90341582e-07,74.57931202274155,-4.65046298e-05,1.17876097,2.5355579031567412
1.90458568e-07,74.69629802274156,-4.87378799e-05,1.1578358,2.5146327331567413
1.90578337e-07,74.81606702274156,-5.09916764e-05,1.13643748,2.493234413156741
1.90719697e-07,74.95742702274156,-5.36072942e-05,1.11121369,2.468010623156741
1.90881685e-07,75.11941502274156,-5.65423684e-05,1.08235177,2.439148703156741
1.91025716e-07,75.26344602274158,-5.90934639e-05,1.05672743,2.413524363156741
1.91216829e-07,75.45455902274156,-6.23888674e-05,1.02278221,2.3795791431567412
1.9139615e-07,75.63388002274155,-6.5383407e-05,0.990988559,2.347785492156741
1.91589883e-07,75.82761302274157,-6.85071063e-05,0.956702048,2.3134989811567412
1.91792559e-07,76.03028902274156,-7.16452278e-05,0.920899302,2.277696235156741
1.92024033e-07,76.26176302274155,-7.50592327e-05,0.880085756,2.236882689156741
1.92282925e-07,76.52065502274155,-7.86527159e-05,0.834550209,2.191347142156741
1.92442942e-07,76.68067202274156,-8.07502529e-05,0.806483395,2.163280328156741
1.9256719e-07,76.80492002274157,-8.23118447e-05,0.784742917,2.1415398501567413
1.92695771e-07,76.93350102274157,-8.38648239e-05,0.762295671,2.119092604156741
1.92822044e-07,77.05977402274156,-8.5326329e-05,0.740289052,2.097085985156741
1.92910514e-07,77.14824402274158,-8.63121558e-05,0.724880244,2.081677177156741
1.92984321e-07,77.22205102274157,-8.71102512e-05,0.71202145,2.0688183831567413
1.93054719e-07,77.29244902274155,-8.78506401e-05,0.69974621,2.056543143156741
1.93127924e-07,77.36565402274157,-8.85987752e-05,0.686966538,2.043763471156741
1.93198512e-07,77.43624202274158,-8.92989841e-05,0.67462979,2.0314267231567413
1.93294227e-07,77.53195702274158,-9.02149134e-05,0.657894222,2.0146911551567412
1.93380482e-07,77.61821202274156,-9.10069573e-05,0.642826767,1.9996237001567412
1.93452655e-07,77.69038502274157,-9.16451769e-05,0.630246218,1.9870431511567412
1.93518412e-07,77.75614202274157,-9.22070811e-05,0.618816371,1.9756133041567412
1.93585527e-07,77.82325702274156,-9.27612052e-05,0.607188339,1.9639852721567412
1.9367275e-07,77.91048002274157,-9.34518983e-05,0.59212913,1.948926063156741
1.93747004e-07,77.98473402274158,-9.40134965e-05,0.579341766,1.936138699156741
1.93815475e-07,78.05320502274155,-9.450971e-05,0.567559572,1.924356505156741
1.93886565e-07,78.12429502274156,-9.50028082e-05,0.555316321,1.9121132541567412
1.93955655e-07,78.19338502274158,-9.54603451e-05,0.543392331,1.900189264156741
1.94029598e-07,78.26732802274155,-9.59262256e-05,0.53059431,1.887391243156741
1.94098766e-07,78.33649602274156,-9.63396424e-05,0.518591208,1.875388141156741
1.94191176e-07,78.42890602274156,-9.68580659e-05,0.502532354,1.859329287156741
1.9426699e-07,78.50472002274155,-9.72542774e-05,0.489366301,1.846163234156741
1.94336839e-07,78.57456902274156,-9.75960021e-05,0.477267038,1.834063971156741
1.94409622e-07,78.64735202274157,-9.7928199e-05,0.464710984,1.8215079171567412
1.94478913e-07,78.71664302274156,-9.82217395e-05,0.452814121,1.8096110541567412
1.94546226e-07,78.78395602274156,-9.84856192e-05,0.441307071,1.798104004156741
1.94616146e-07,78.85387602274156,-9.87374423e-05,0.429393652,1.7861905851567412
1.94700488e-07,78.93821802274158,-9.90109307e-05,0.415043754,1.7718406871567411
1.94770145e-07,79.00787502274157,-9.92117731e-05,0.403185073,1.759982006156741
1.94844276e-07,79.08200602274155,-9.94005909e-05,0.390534735,1.747331668156741
1.94916759e-07,79.15448902274156,-9.95603191e-05,0.378124225,1.734921158156741
1.94987271e-07,79.22500102274157,-9.96920442e-05,0.366013078,1.722810011156741
1.95071924e-07,79.30965402274157,-9.98193253e-05,0.351441547,1.7082384801567412
1.95173792e-07,79.41152202274158,-9.99277889e-05,0.333909329,1.690706262156741
1.95248219e-07,79.48594902274156,-9.99761372e-05,0.321129597,1.677926530156741
1.95317585e-07,79.55531502274157,-9.99976969e-05,0.309259667,1.6660566001567412
1.95386118e-07,79.62384802274157,-9.99967259e-05,0.297579099,1.6543760321567411
1.95455144e-07,79.69287402274155,-9.99733712e-05,0.285860168,1.642657101156741
1.95521768e-07,79.75949802274157,-9.99295358e-05,0.27458348,1.631380413156741
1.95588861e-07,79.82659102274155,-9.98642639e-05,0.263247612,1.6200445451567411
