Time_s,Time_ns,Vin_V,Vout_V,Vout_AC_V
9.26145384e-07,0.04722418193250502,1.28405179e-07,2.37197395,2.133891741506094
9.26534384e-07,0.4362241819325491,1.18405976e-06,2.3782154,2.140133191506094
9.27312386e-07,1.2142261819325386,3.29485542e-06,2.38971509,2.151632881506094
9.28452976e-07,2.3548161819324775,6.3864731e-06,2.40652361,2.1684414015060938
9.3001549e-07,3.9173301819324604,1.06112074e-05,2.42945743,2.1913752215060938
9.33140518e-07,7.042358181932532,1.89958836e-05,2.47422507,2.236142861506094
9.38347707e-07,12.249547181932531,3.26345258e-05,2.54591582,2.307833611506094
9.43549504e-07,17.451344181932452,4.5609525e-05,2.61400036,2.375918151506094
9.49337617e-07,23.239457181932544,5.89695837e-05,2.68574157,2.4476593615060938
9.52931058e-07,26.832898181932524,6.65528818e-05,2.72817948,2.490097271506094
9.5580926e-07,29.711100181932444,7.21739154e-05,2.76105351,2.522971301506094
9.58123934e-07,32.02577418193248,7.6376637e-05,2.78679942,2.548717211506094
9.60067867e-07,33.969707181932435,7.9674103e-05,2.80795117,2.569868961506094
9.60896497e-07,34.79833718193259,8.10128176e-05,2.81682558,2.578743371506094
9.61389634e-07,35.2914741819324,8.17901156e-05,2.82208673,2.584004521506094
9.61633986e-07,35.53582618193258,8.21698529e-05,2.82468898,2.586606771506094
9.61876741e-07,35.77858118193257,8.25435293e-05,2.82726292,2.589180711506094
9.61998846e-07,35.90068618193241,8.27301352e-05,2.82855018,2.590467971506094
9.62099548e-07,36.00138818193242,8.2883348e-05,2.82960641,2.5915242015060937
9.62206892e-07,36.108732181932595,8.30459846e-05,2.83072672,2.592644511506094
9.62313286e-07,36.215126181932504,8.32064863e-05,2.83183343,2.593751221506094
9.62466741e-07,36.368581181932555,8.34367602e-05,2.83343238,2.595350171506094
9.62554739e-07,36.45657918193243,8.3568157e-05,2.8343543,2.596272091506094
9.62629562e-07,36.531402181932485,8.36795066e-05,2.83514285,2.597060641506094
9.62698627e-07,36.6004671819324,8.37819803e-05,2.83587492,2.597792711506094
9.62766775e-07,36.66861518193249,8.3882806e-05,2.83660056,2.598518351506094
9.62834718e-07,36.73655818193257,8.39830418e-05,2.83732558,2.599243371506094
9.62902825e-07,36.8046651819324,8.40832342e-05,2.83805155,2.599969341506094
9.62977474e-07,36.87931418193246,8.41927195e-05,2.83884306,2.600760851506094
9.63059919e-07,36.961759181932415,8.4313238e-05,2.83970868,2.601626471506094
9.63152964e-07,37.0548041819325,8.44487444e-05,2.84067277,2.602590561506094
9.63259136e-07,37.16097618193245,8.46027104e-05,2.84175902,2.603676811506094
9.63387624e-07,37.28946418193246,8.47880994e-05,2.84306664,2.604984431506094
9.63523539e-07,37.42537918193241,8.49830818e-05,2.84445932,2.606377111506094
9.63626139e-07,37.52797918193253,8.51295041e-05,2.84552404,2.607441831506094
9.63720618e-07,37.62245818193252,8.52637541e-05,2.84651564,2.6084334315060937
9.63823899e-07,37.72573918193247,8.54098699e-05,2.8476069,2.609524691506094
9.6393338e-07,37.835220181932456,8.55640247e-05,2.84876217,2.610679961506094
9.64043361e-07,37.94520118193257,8.57181223e-05,2.84991156,2.6118293515060937
9.64162079e-07,38.0639191819325,8.5883605e-05,2.85113439,2.613052181506094
9.64299851e-07,38.20169118193252,8.60745307e-05,2.85253515,2.614452941506094
9.64446426e-07,38.3482661819326,8.62763334e-05,2.85401965,2.615937441506094
9.64643314e-07,38.545154181932546,8.65452562e-05,2.85603002,2.617947811506094
9.64794237e-07,38.696077181932516,8.67497255e-05,2.8575868,2.619504591506094
9.64979705e-07,38.881545181932545,8.69990026e-05,2.85950519,2.621422981506094
9.65147066e-07,39.04890618193243,8.72220514e-05,2.86122637,2.6231441615060938
9.65314606e-07,39.21644618193243,8.74435373e-05,2.8629331,2.6248508915060937
9.65517159e-07,39.4189991819325,8.77088951e-05,2.86498206,2.626899851506094
9.65733543e-07,39.63538318193245,8.79894439e-05,2.86716963,2.6290874215060938
9.65962537e-07,39.8643771819326,8.82830373e-05,2.86949117,2.631408961506094
9.66230427e-07,40.1322671819324,8.86221703e-05,2.87220665,2.634124441506094
9.66514795e-07,40.41663518193247,8.89770394e-05,2.87507539,2.636993181506094
9.66840802e-07,40.742642181932496,8.93773499e-05,2.87834566,2.640263451506094
9.6724556e-07,41.14740018193242,8.98646211e-05,2.88239088,2.644308671506094
9.67825063e-07,41.72690318193254,9.05433699e-05,2.88815178,2.650069571506094
9.68197834e-07,42.099674181932585,9.09681576e-05,2.89152547,2.653443261506094
9.68523662e-07,42.425502181932494,9.13318277e-05,2.89299991,2.654917701506094
9.68797443e-07,42.69928318193259,9.16318869e-05,2.892445,2.654362791506094
9.68978476e-07,42.88031618193252,9.18275184e-05,2.89136212,2.653279911506094
9.69163715e-07,43.06555518193246,9.20254e-05,2.89035612,2.652273911506094
9.69369924e-07,43.27176418193244,9.2242948e-05,2.89012287,2.652040661506094
9.69527912e-07,43.42975218193253,9.24076694e-05,2.89053683,2.652454621506094
9.69698502e-07,43.60034218193258,9.25836219e-05,2.89091615,2.6528339415060938
9.69878013e-07,43.779853181932495,9.27666335e-05,2.89039916,2.652316951506094
9.70105002e-07,44.00684218193248,9.29948967e-05,2.88821335,2.650131141506094
9.70379761e-07,44.28160118193252,9.32664759e-05,2.88502934,2.646947131506094
9.70648828e-07,44.55066818193246,9.35274038e-05,2.88282659,2.644744381506094
9.70945971e-07,44.8478111819326,9.38097629e-05,2.88130395,2.643221741506094
9.71289427e-07,45.1912671819325,9.41285288e-05,2.8793717,2.641289491506094
9.71671752e-07,45.57359218193247,9.44737509e-05,2.87659366,2.638511451506094
9.72286079e-07,46.1879191819325,9.50071446e-05,2.87214519,2.634062981506094
9.72848298e-07,46.750138181932606,9.54721568e-05,2.86836555,2.630283341506094
9.73883069e-07,47.7849091819325,9.62698444e-05,2.86136368,2.623281471506094
9.74879622e-07,48.78146218193246,9.69663192e-05,2.85456977,2.616487561506094
9.76301777e-07,50.20361718193257,9.78373071e-05,2.84495924,2.606877031506094
9.77962065e-07,51.863905181932424,9.86696997e-05,2.83382469,2.595742481506094
9.79997714e-07,53.8995541819324,9.94168193e-05,2.82028215,2.582199941506094
9.82389372e-07,56.29121218193261,9.99069391e-05,2.80453092,2.566448711506094
9.85361112e-07,59.2629521819326,9.99296852e-05,2.7851971,2.547114891506094
9.87575933e-07,61.47777318193242,9.95239992e-05,2.77095726,2.532875051506094
9.89974036e-07,63.875876181932604,9.86795177e-05,2.7557003,2.517618091506094
9.92022975e-07,65.9248151819325,9.76268207e-05,2.74279608,2.504713871506094
9.93106995e-07,67.00883518193243,9.69475691e-05,2.73601749,2.497935281506094
9.93705313e-07,67.60715318193252,9.65366878e-05,2.73229055,2.494208341506094
9.94052786e-07,67.95462618193248,9.62863785e-05,2.73013082,2.492048611506094
9.94351775e-07,68.25361518193255,9.6064142e-05,2.72827514,2.490192931506094
9.94538796e-07,68.44063618193259,9.59219136e-05,2.72711559,2.489033381506094
9.94654341e-07,68.55618118193256,9.5832808e-05,2.72639968,2.488317471506094
9.94776368e-07,68.67820818193253,9.57376795e-05,2.72564397,2.487561761506094
9.94890665e-07,68.79250518193241,9.56476252e-05,2.72493652,2.486854311506094
9.95087847e-07,68.98968718193258,9.54901037e-05,2.72371694,2.485634731506094
9.95291741e-07,69.19358118193253,9.53243446e-05,2.72245707,2.484374861506094
9.95602079e-07,69.50391918193257,9.50664497e-05,2.72054172,2.482459511506094
9.9591579e-07,69.81763018193246,9.47988979e-05,2.71860821,2.480526001506094
9.96084595e-07,69.9864351819325,9.46520863e-05,2.7175689,2.479486691506094
9.961968e-07,70.09864018193242,9.45534016e-05,2.7168785,2.478796291506094
9.96308397e-07,70.21023718193247,9.44543814e-05,2.71619217,2.4781099615060938
9.96431629e-07,70.33346918193247,9.43440315e-05,2.7154347,2.477352491506094
9.96502759e-07,70.40459918193257,9.42798559e-05,2.71499767,2.4769154615060938
9.96557982e-07,70.45982218193247,9.42297911e-05,2.71465849,2.476576281506094
9.9660626e-07,70.50810018193246,9.41858477e-05,2.71436203,2.476279821506094
9.96657759e-07,70.5595991819324,9.41387959e-05,2.71404587,2.475963661506094
9.96711439e-07,70.61327918193251,9.4089554e-05,2.7137164,2.475634191506094
9.96775746e-07,70.67758618193254,9.40303026e-05,2.71332182,2.475239611506094
9.96856708e-07,70.75854818193253,9.39552976e-05,2.71282521,2.474743001506094
9.96934584e-07,70.83642418193253,9.38827235e-05,2.71234768,2.474265471506094
9.97034476e-07,70.93631618193257,9.37890182e-05,2.71173536,2.473653151506094
9.97152424e-07,71.05426418193245,9.36774881e-05,2.71101266,2.472930451506094
9.97251205e-07,71.1530451819326,9.35833433e-05,2.71040767,2.472325461506094
9.97349993e-07,71.25183318193244,9.34885191e-05,2.70980289,2.471720681506094
9.97474037e-07,71.37587718193242,9.33685012e-05,2.70904391,2.470961701506094
9.97599025e-07,71.50086518193244,9.32465e-05,2.7082796,2.470197391506094
9.97728251e-07,71.63009118193258,9.31192335e-05,2.70748983,2.469407621506094
9.97904436e-07,71.8062761819325,9.2943875e-05,2.70641371,2.468331501506094
9.98071391e-07,71.9732311819324,9.27757436e-05,2.70539465,2.467312441506094
9.9826897e-07,72.17081018193242,9.25743105e-05,2.70418952,2.466107311506094
9.98522087e-07,72.42392718193253,9.23123692e-05,2.702647,2.4645647915060938
9.987975e-07,72.6993401819324,9.20224066e-05,2.70097024,2.462888031506094
9.99205874e-07,73.10771418193254,9.1583001e-05,2.6984867,2.460404491506094
9.99638513e-07,73.54035318193247,9.11052159e-05,2.69585835,2.457776141506094
1.00050379e-06,74.40563018193248,9.01120361e-05,2.69060228,2.4525200715060937
1.00144732e-06,75.34916018193248,8.89724275e-05,2.68484112,2.446758911506094
1.00333439e-06,77.23623018193251,8.65189985e-05,2.67260653,2.434524321506094
1.00507631e-06,78.97815018193245,8.4052755e-05,2.65741221,2.419330001506094
1.00673438e-06,80.63622018193253,8.15306848e-05,2.63292072,2.394838511506094
1.00885303e-06,82.75487018193257,7.80685701e-05,2.58014758,2.342065371506094
1.01168498e-06,85.58682018193242,7.30400506e-05,2.47630361,2.238221401506094
1.01437869e-06,88.28053018193248,6.78563499e-05,2.34967751,2.1115953015060938
1.01566087e-06,89.56271018193252,6.52598637e-05,2.28099502,2.042912811506094
1.01631164e-06,90.2134801819325,6.39116016e-05,2.24418555,2.006103341506094
1.01678721e-06,90.68905018193243,6.2913679e-05,2.21646558,1.978383371506094
1.01711724e-06,91.01908018193254,6.22149893e-05,2.19681695,1.958734741506094
1.01740692e-06,91.3087601819324,6.15975969e-05,2.17928848,1.9412062715060938
1.01758796e-06,91.48980018193245,6.12098147e-05,2.16819942,1.930117211506094
1.01772257e-06,91.62441018193243,6.09205328e-05,2.15988742,1.921805211506094
1.0178371e-06,91.73894018193242,6.06737649e-05,2.15277043,1.9146882215060939
1.01795655e-06,91.85839018193248,6.04157513e-05,2.14530323,1.907221021506094
1.01805677e-06,91.95861018193243,6.01988022e-05,2.13900418,1.900921971506094
1.01817441e-06,92.07625018193248,5.99435709e-05,2.13157008,1.8934878715060939
1.01830277e-06,92.20461018193245,5.96643877e-05,2.12340939,1.885327181506094
1.01845732e-06,92.35916018193255,5.93272628e-05,2.11351497,1.8754327615060942
1.01858285e-06,92.48469018193242,5.90526939e-05,2.10542435,1.8673421415060938
1.01869853e-06,92.60037018193255,5.87990422e-05,2.09792458,1.8598423715060939
1.01882644e-06,92.72828018193259,5.85179041e-05,2.08958368,1.851501471506094
1.01897059e-06,92.87243018193244,5.82002275e-05,2.08012304,1.842040831506094
1.01915043e-06,93.0522701819326,5.78026546e-05,2.06823013,1.8301479215060938
1.01931941e-06,93.22125018193253,5.7427836e-05,2.05696447,1.818882261506094
1.01950335e-06,93.40519018193253,5.70184616e-05,2.04460148,1.8065192715060938
1.01972368e-06,93.62552018193259,5.65262506e-05,2.02965644,1.791574231506094
1.01990318e-06,93.80502018193258,5.61237384e-05,2.01737022,1.779288011506094
1.02013496e-06,94.03680018193246,5.56020165e-05,2.00135953,1.7632773215060942
1.02037852e-06,94.28036018193252,5.50514307e-05,1.98435915,1.746276941506094
1.0206353e-06,94.53714018193246,5.44683305e-05,1.96623971,1.728157501506094
1.02096876e-06,94.87060018193252,5.37071746e-05,1.9424113,1.704329091506094
1.02138298e-06,95.28482018193246,5.27555692e-05,1.91234423,1.674262021506094
1.02193657e-06,95.8384101819325,5.14733795e-05,1.87135425,1.633272041506094
1.02250201e-06,96.40385018193254,5.01517661e-05,1.82854038,1.590458171506094
1.02363288e-06,97.53472018193258,4.74734262e-05,1.74006702,1.5019848115060939
1.02414716e-06,98.04900018193254,4.62404763e-05,1.69858427,1.460502061506094
1.02459212e-06,98.49396018193241,4.51664561e-05,1.66206818,1.4239859715060939
1.02494379e-06,98.84563018193245,4.43129259e-05,1.63279868,1.394716471506094
1.02528191e-06,99.18375018193248,4.34884887e-05,1.60431751,1.366235301506094
1.02546007e-06,99.36191018193246,4.30525927e-05,1.58917267,1.351090461506094
1.02561841e-06,99.52025018193255,4.26643434e-05,1.57563002,1.337547811506094
1.02579957e-06,99.70141018193242,4.22191783e-05,1.56004264,1.321960431506094
1.02593351e-06,99.83535018193251,4.18893936e-05,1.54845909,1.3103768815060939
1.02606712e-06,99.96896018193246,4.1559872e-05,1.53685881,1.298776601506094
1.02623277e-06,100.1346101819326,4.11505832e-05,1.52241582,1.284333611506094
1.02642228e-06,100.32412018193246,4.06812951e-05,1.50580046,1.2677182515060939
1.02661702e-06,100.51886018193245,4.01979598e-05,1.48861559,1.250533381506094
1.026838e-06,100.73984018193255,3.96481059e-05,1.46897243,1.230890221506094
1.02715869e-06,101.06053018193245,3.88476567e-05,1.44021412,1.202131911506094
1.02749131e-06,101.39315018193244,3.801431e-05,1.41008384,1.172001631506094
1.02787507e-06,101.77691018193242,3.70489746e-05,1.37493892,1.136856711506094
1.02848268e-06,102.38452018193254,3.55124016e-05,1.318444,1.080361791506094
1.02911899e-06,103.0208301819326,3.38929057e-05,1.25816808,1.0200858715060939
1.03039161e-06,104.29345018193247,3.06240802e-05,1.13425096,0.896168751506094
1.03200608e-06,105.90792018193257,2.64251395e-05,0.970672512,0.7325903035060941
1.03275053e-06,106.6523701819325,2.4471391e-05,0.892868714,0.6547865055060941
1.03334873e-06,107.25057018193257,2.28941741e-05,0.829281616,0.5911994075060941
1.03380016e-06,107.7020001819324,2.16999107e-05,0.780676103,0.5425938945060941
1.03413685e-06,108.03869018193254,2.08070781e-05,0.744083451,0.506001242506094
1.03448584e-06,108.3876801819326,1.98797788e-05,0.705843511,0.46776130250609405
1.03466279e-06,108.56463018193243,1.94089329e-05,0.686320497,0.44823828850609404
1.03481968e-06,108.72152018193256,1.89910909e-05,0.668980627,0.4308984185060941
1.0349392e-06,108.84104018193243,1.8672519e-05,0.655782562,0.417700353506094
1.03507821e-06,108.9800501819325,1.83017802e-05,0.640441236,0.4023590275060941
1.03520794e-06,109.10978018193256,1.79555401e-05,0.626075557,0.387993348506094
1.03531281e-06,109.21465018193246,1.76755037e-05,0.614387664,0.37630545550609407
1.03539295e-06,109.29479018193241,1.74613985e-05,0.605395239,0.3673130305060941
1.03546325e-06,109.36509018193247,1.72735109e-05,0.597463333,0.35938112450609405
1.0355332e-06,109.43504018193252,1.70864987e-05,0.589539847,0.351457638506094
1.03560882e-06,109.5106601819324,1.68842559e-05,0.580957519,0.3428753105060941
1.03569013e-06,109.59197018193258,1.66667438e-05,0.571736066,0.3336538575060941
1.03578548e-06,109.68732018193245,1.64115258e-05,0.560954363,0.3228721545060941
1.03588735e-06,109.78919018193247,1.61387744e-05,0.549485967,0.31140375850609403
1.03600408e-06,109.9059201819326,1.58260517e-05,0.536377595,0.2982953865060941
1.03614468e-06,110.0465201819325,1.54491753e-05,0.520554464,0.2824722555060941
1.03627625e-06,110.17809018193246,1.50963168e-05,0.505645915,0.26756370650609407
1.0363877e-06,110.28954018193251,1.4797261e-05,0.492918729,0.25483652050609407
1.03650156e-06,110.4034001819326,1.44915846e-05,0.479836761,0.24175455250609404
1.03663402e-06,110.5358601819324,1.41358214e-05,0.464572081,0.22648987250609406
1.03679018e-06,110.69202018193242,1.37161367e-05,0.446587198,0.20850498950609406
1.03692886e-06,110.83070018193256,1.3343247e-05,0.430654001,0.19257179250609405
1.03710485e-06,111.00669018193251,1.28697773e-05,0.41045097,0.17236876150609406
1.03727401e-06,111.17585018193246,1.24143923e-05,0.390979058,0.15289684950609403
1.03745641e-06,111.35825018193259,1.19230467e-05,0.369870537,0.13178832850609404
1.03763452e-06,111.53636018193261,1.14430164e-05,0.349155322,0.11107311350609403
1.03785003e-06,111.75187018193255,1.0861791e-05,0.324017583,0.08593537450609404
1.03811523e-06,112.01707018193254,1.01460872e-05,0.293056178,0.05497396950609404
1.03838869e-06,112.29053018193243,9.40750662e-06,0.261085939,0.023003730506094028
1.03868277e-06,112.58461018193258,8.61267442e-06,0.226605138,-0.01147707049390595
1.03903923e-06,112.94107018193243,7.64850891e-06,0.18465851,-0.05342369849390596
1.03947899e-06,113.38083018193248,6.45805817e-06,0.132754319,-0.10532788949390595
1.03996929e-06,113.87113018193249,5.12969101e-06,0.0747444173,-0.16333779119390596
1.04031798e-06,114.21982018193252,4.18443805e-06,0.0334093203,-0.20467288819390594
1.04056123e-06,114.46307018193251,3.5248139e-06,0.00453715844,-0.23354505005390597
1.04079225e-06,114.6940901819324,2.89818453e-06,-0.0229089257,-0.26099113419390596
1.04111061e-06,115.01245018193252,2.03447551e-06,-0.0607594155,-0.29884162399390596
1.04134351e-06,115.24535018193245,1.4025012e-06,-0.0884660564,-0.326548264893906
1.04152365e-06,115.42549018193243,9.13671056e-07,-0.109902646,-0.347984854493906
1.0417121e-06,115.61394018193248,4.02254022e-07,-0.132338984,-0.3704211924939059
1.0419192e-06,115.8210401819324,-1.59782802e-07,-0.157021952,-0.39510416049390595
1.04203317e-06,115.93501018193248,-4.6907011e-07,-0.170622568,-0.40870477649390596
1.0421506e-06,116.0524401819324,-7.87752335e-07,-0.184656168,-0.422738376493906
1.04230874e-06,116.2105801819324,-1.21688433e-06,-0.203604853,-0.44168706149390596
1.04246986e-06,116.37170018193241,-1.65408565e-06,-0.223044576,-0.461126784493906
1.04262291e-06,116.52475018193257,-2.06938505e-06,-0.242071722,-0.480153930493906
1.04272802e-06,116.62986018193249,-2.35455448e-06,-0.256346041,-0.49442824949390596
1.04281115e-06,116.7129901819325,-2.58009865e-06,-0.268740896,-0.506823104493906
1.04289577e-06,116.79761018193241,-2.80964319e-06,-0.281976205,-0.5200584134939059
1.04298562e-06,116.88746018193244,-3.05338413e-06,-0.2952683,-0.533350508493906
1.04304148e-06,116.94332018193242,-3.20490869e-06,-0.302430972,-0.540513180493906
1.04309169e-06,116.99353018193244,-3.3410926e-06,-0.307678627,-0.545760835493906
1.04314078e-06,117.04262018193243,-3.47424128e-06,-0.311455518,-0.549537726493906
1.04319118e-06,117.0930201819325,-3.61091582e-06,-0.313870062,-0.5519522704939059
1.04324523e-06,117.14707018193249,-3.75751862e-06,-0.314986135,-0.553068343493906
1.04332279e-06,117.22463018193241,-3.96783094e-06,-0.3149062,-0.552988408493906
1.04338245e-06,117.2842901819324,-4.1296113e-06,-0.31434557,-0.552427778493906
1.04343354e-06,117.33538018193245,-4.26814816e-06,-0.314136823,-0.5522190314939059
1.04348304e-06,117.38488018193243,-4.40233696e-06,-0.314619704,-0.552701912493906
1.04353328e-06,117.43512018193258,-4.53854878e-06,-0.316076075,-0.554158283493906
1.04358306e-06,117.48490018193252,-4.6735037e-06,-0.318553188,-0.5566353964939059
1.04366117e-06,117.56301018193253,-4.88524706e-06,-0.324038712,-0.5621209204939059
1.04372203e-06,117.62387018193243,-5.05018906e-06,-0.328992622,-0.567074830493906
1.04378829e-06,117.69013018193245,-5.22977865e-06,-0.334060274,-0.572142482493906
1.0438512e-06,117.75304018193259,-5.40027089e-06,-0.337665964,-0.575748172493906
1.04393365e-06,117.83549018193246,-5.62367754e-06,-0.339463281,-0.5775454894939059
1.04402041e-06,117.92225018193251,-5.8587555e-06,-0.337329037,-0.575411245493906
1.04411784e-06,118.01968018193251,-6.1226744e-06,-0.330782668,-0.5688648764939059
1.04419619e-06,118.09803018193254,-6.33489681e-06,-0.323456894,-0.5615391024939059
1.0442717e-06,118.17354018193244,-6.53938025e-06,-0.315839791,-0.553921999493906
1.0443608e-06,118.26264018193251,-6.78064497e-06,-0.30747826,-0.5455604684939059
1.04445112e-06,118.35296018193256,-7.02517535e-06,-0.300365624,-0.5384478324939059
1.0445349e-06,118.43674018193259,-7.25197524e-06,-0.294871353,-0.5329535614939059
