Frequency_Hz,Gain_dB,Phase_deg
1.0,86.0163599,8.42840615e-08
1.02329299,86.0163599,8.62472904e-08
1.04712855,86.0163599,8.82562437e-08
1.07151931,86.0163599,9.03120103e-08
1.0964782,86.0163599,9.24156557e-08
1.12201845,86.0163599,9.45682693e-08
1.14815362,86.0163599,9.67710395e-08
1.17489755,86.0163599,9.90251524e-08
1.20226443,86.0163599,1.01331734e-07
1.23026877,86.0163599,1.03692056e-07
1.25892541,86.0163599,1.06107349e-07
1.28824955,86.0163599,1.08578913e-07
1.31825674,86.0163599,1.11108042e-07
1.34896288,86.0163599,1.13696064e-07
1.38038426,86.0163599,1.16344399e-07
1.41253754,86.0163599,1.19054402e-07
1.44543977,86.0163599,1.21827527e-07
1.47910839,86.0163599,1.24665281e-07
1.51356125,86.0163599,1.27569093e-07
1.54881662,86.0163599,1.30540571e-07
1.58489319,86.0163599,1.33581237e-07
1.6218101,86.0163599,1.36692767e-07
1.65958691,86.0163599,1.39876748e-07
1.69824365,86.0163599,1.43134872e-07
1.73780083,86.0163599,1.46468897e-07
1.77827941,86.0163599,1.49880616e-07
1.81970086,86.0163599,1.53371778e-07
1.86208714,86.0163599,1.56944267e-07
1.90546072,86.0163599,1.60599971e-07
1.9498446,86.0163599,1.64340848e-07
1.99526231,86.0163599,1.68168815e-07
2.04173794,86.0163599,1.72085982e-07
2.08929613,86.0163599,1.76094348e-07
2.13796209,86.0163599,1.80196139e-07
2.18776162,86.0163599,1.84393398e-07
2.23872114,86.0163599,1.88688521e-07
2.29086765,86.0163599,1.9308364e-07
2.34422882,86.0163599,1.97581137e-07
2.39883292,86.0163599,2.02183382e-07
2.45470892,86.0163599,2.06892832e-07
2.51188643,86.0163599,2.11711994e-07
2.57039578,86.0163599,2.16643404e-07
2.63026799,86.0163599,2.21689688e-07
2.6915348,86.0163599,2.26853517e-07
2.7542287,86.0163599,2.3213761e-07
2.81838293,86.0163599,2.37544789e-07
2.8840315,86.0163599,2.43077894e-07
2.95120923,86.0163599,2.48739899e-07
3.01995172,86.0163599,2.54533787e-07
3.09029543,86.0163599,2.60462638e-07
3.16227766,86.0163599,2.66529615e-07
3.23593657,86.0163599,2.72737914e-07
3.31131121,86.0163599,2.79090786e-07
3.38844156,86.0163599,2.8559163e-07
3.4673685,86.0163599,2.92243888e-07
3.54813389,86.0163599,2.99051117e-07
3.63078055,86.0163599,3.06016956e-07
3.71535229,86.0163599,3.13145025e-07
3.80189396,86.0163599,3.20439054e-07
3.89045145,86.0163599,3.27903098e-07
3.98107171,86.0163599,3.35540921e-07
4.07380278,86.0163599,3.43356626e-07
4.16869383,86.0163599,3.51354462e-07
4.26579519,86.0163599,3.59538527e-07
4.36515832,86.0163599,3.67913318e-07
4.46683592,86.0163599,3.76483086e-07
4.5708819,86.0163599,3.852525e-07
4.67735141,86.0163599,3.94226155e-07
4.78630092,86.0163599,4.03408901e-07
4.89778819,86.0163599,4.12805544e-07
5.01187234,86.0163599,4.22421029e-07
5.12861384,86.0163599,4.32260411e-07
5.2480746,86.0163599,4.42329104e-07
5.37031796,86.0163599,4.52632232e-07
5.49540874,86.0163599,4.63175381e-07
5.62341325,86.0163599,4.73964177e-07
5.75439937,86.0163599,4.85004153e-07
5.88843655,86.0163599,4.96301416e-07
6.02559586,86.0163599,5.07861691e-07
6.16595002,86.0163599,5.19691358e-07
6.30957344,86.0163599,5.317965e-07
6.45654229,86.0163599,5.44183649e-07
6.60693448,86.0163599,5.56859361e-07
6.76082975,86.0163599,5.69830196e-07
6.91830971,86.0163599,5.83103287e-07
7.07945784,86.0163599,5.96685507e-07
7.2443596,86.0163599,6.1058409e-07
7.41310241,86.0163599,6.24806406e-07
7.58577575,86.0163599,6.39360058e-07
7.76247117,86.0163599,6.5425266e-07
7.94328235,86.0163599,6.69492177e-07
8.12830516,86.0163599,6.85086646e-07
8.31763771,86.0163599,7.01044423e-07
8.51138038,86.0163599,7.17373752e-07
8.7096359,86.0163599,7.3408343e-07
8.91250938,86.0163599,7.51182484e-07
9.12010839,86.0163599,7.68679815e-07
9.33254301,86.0163599,7.86584647e-07
9.54992586,86.0163599,8.04906561e-07
9.77237221,86.0163599,8.23655265e-07
10.0,86.0163599,8.42840582e-07
10.2329299,86.0163599,8.6247299e-07
10.4712855,86.0163599,8.82562465e-07
10.7151931,86.0163599,9.03120007e-07
10.964782,86.0163599,9.24156465e-07
11.2201845,86.0163599,9.45682775e-07
11.4815362,86.0163599,9.67710536e-07
11.7489755,86.0163599,9.90251384e-07
12.0226443,86.0163599,1.01331739e-06
12.3026877,86.0163599,1.03692058e-06
12.5892541,86.0163599,1.06107352e-06
12.8824955,86.0163599,1.08578902e-06
13.1825674,86.0163599,1.11108046e-06
13.4896288,86.0163599,1.1369608e-06
13.8038426,86.0163599,1.16344389e-06
14.1253754,86.0163599,1.19054406e-06
14.4543977,86.0163599,1.21827537e-06
14.7910839,86.0163599,1.24665286e-06
15.1356125,86.0163599,1.27569077e-06
15.4881662,86.0163599,1.30540572e-06
15.8489319,86.0163599,1.33581238e-06
16.218101,86.0163599,1.36692791e-06
16.5958691,86.0163599,1.39876729e-06
16.9824365,86.0163599,1.43134876e-06
17.3780083,86.0163599,1.46468934e-06
17.7827941,86.0163599,1.49880611e-06
18.1970086,86.0163599,1.53371766e-06
18.6208714,86.0163599,1.56944292e-06
19.0546072,86.0163599,1.60599964e-06
19.498446,86.0163599,1.64340828e-06
19.9526231,86.0163599,1.68168826e-06
20.4173794,86.0163599,1.7208597e-06
20.8929613,86.0163599,1.76094356e-06
21.3796209,86.0163599,1.80196171e-06
21.8776162,86.0163599,1.84393443e-06
22.3872114,86.0163599,1.88688524e-06
22.9086765,86.0163599,1.93083657e-06
23.4422882,86.0163599,1.97581125e-06
23.9883292,86.0163599,2.02183383e-06
24.5470892,86.0163599,2.06892839e-06
25.1188643,86.0163599,2.11711983e-06
25.7039578,86.0163599,2.16643416e-06
26.3026799,86.0163599,2.21689681e-06
26.915348,86.0163599,2.26853493e-06
27.542287,86.0163599,2.32137582e-06
28.1838293,86.0163599,2.37544757e-06
28.840315,86.0163599,2.43077888e-06
29.5120923,86.0163599,2.48739898e-06
30.1995172,86.0163599,2.54533807e-06
30.9029543,86.0163599,2.60462668e-06
31.6227766,86.0163599,2.66529671e-06
32.3593657,86.0163599,2.72737857e-06
33.1131121,86.0163599,2.79090754e-06
33.8844156,86.0163599,2.85591619e-06
34.673685,86.0163599,2.92243916e-06
35.4813389,86.0163599,2.99051138e-06
36.3078055,86.0163599,3.06016927e-06
37.1535229,86.0163599,3.13145018e-06
38.0189396,86.0163599,3.20439133e-06
38.9045145,86.0163599,3.27903038e-06
39.8107171,86.0163599,3.35540882e-06
40.7380278,86.0163599,3.43356596e-06
41.6869383,86.0163599,3.51354492e-06
42.6579519,86.0163599,3.59538563e-06
43.6515832,86.0163599,3.67913318e-06
44.6683592,86.0163599,3.76483067e-06
45.708819,86.0163599,3.85252496e-06
46.7735141,86.0163599,3.94226142e-06
47.8630092,86.0163599,4.03408899e-06
48.9778819,86.0163599,4.12805463e-06
50.1187234,86.0163599,4.22420911e-06
51.2861384,86.0163599,4.32260421e-06
52.480746,86.0163599,4.4232905e-06
53.7031796,86.0163599,4.52632185e-06
54.9540874,86.0163599,4.6317534e-06
56.2341325,86.0163599,4.73964098e-06
57.5439937,86.0163599,4.85004091e-06
58.8843655,86.0163599,4.96301222e-06
60.2559586,86.0163599,5.07861637e-06
61.6595002,86.0163599,5.19691321e-06
63.0957344,86.0163599,5.31796509e-06
64.5654229,86.0163599,5.44183618e-06
66.0693448,86.0163599,5.56859308e-06
67.6082975,86.0163599,5.69830179e-06
69.1830971,86.0163599,5.83103151e-06
70.7945784,86.0163599,5.96685369e-06
72.443596,86.0163599,6.10583969e-06
74.1310241,86.0163599,6.24806258e-06
75.8577575,86.0163599,6.3935988e-06
77.6247117,86.0163599,6.54252555e-06
79.4328235,86.0163599,6.6949213e-06
81.2830516,86.0163599,6.85086384e-06
83.1763771,86.0163599,7.01044142e-06
85.1138038,86.0163599,7.17373535e-06
87.096359,86.0163599,7.34083413e-06
89.1250938,86.0163599,7.51182296e-06
91.2010839,86.0163599,7.68679541e-06
93.3254301,86.0163599,7.86584483e-06
95.4992586,86.0163599,8.04906235e-06
97.7237221,86.0163599,8.23654936e-06
100.0,86.0163599,8.42840399e-06
102.329299,86.0163599,8.62472533e-06
104.712855,86.0163599,8.8256221e-06
107.151931,86.0163599,9.03119616e-06
109.64782,86.0163599,9.24155988e-06
112.201845,86.0163599,9.45682473e-06
114.815362,86.0163599,9.67710181e-06
117.489755,86.0163599,9.90251005e-06
120.226443,86.0163599,1.01331682e-05
123.026877,86.0163599,1.03692007e-05
125.892541,86.0163599,1.06107293e-05
128.824955,86.0163599,1.08578858e-05
131.825674,86.0163599,1.11107986e-05
134.896288,86.0163599,1.13696001e-05
138.038426,86.0163599,1.16344327e-05
141.253754,86.0163599,1.19054349e-05
144.543977,86.0163599,1.21827443e-05
147.910839,86.0163599,1.24665173e-05
151.356125,86.0163599,1.27569018e-05
154.881662,86.0163599,1.30540479e-05
158.489319,86.0163599,1.33581121e-05
162.18101,86.0163599,1.36692623e-05
165.958691,86.0163599,1.39876604e-05
169.824365,86.0163599,1.43134739e-05
173.780083,86.0163599,1.46468776e-05
177.827941,86.0163599,1.49880457e-05
181.970086,86.0163599,1.53371622e-05
186.208714,86.0163599,1.56944094e-05
190.546072,86.0163599,1.60599758e-05
194.98446,86.0163599,1.64340627e-05
199.526231,86.0163599,1.68168607e-05
204.173794,86.0163599,1.72085744e-05
208.929613,86.0163599,1.7609411e-05
213.796209,86.0163599,1.80195863e-05
218.776162,86.0163599,1.84393153e-05
223.872114,86.0163599,1.88688181e-05
229.086765,86.0163599,1.93083288e-05
234.422882,86.0163599,1.97580751e-05
239.883292,86.0163599,2.02183016e-05
245.470892,86.0163599,2.06892438e-05
251.188643,86.0163599,2.11711584e-05
257.039578,86.0163599,2.16642883e-05
263.026799,86.0163599,2.21689159e-05
269.15348,86.0163599,2.26852961e-05
275.42287,86.0163599,2.32137025e-05
281.838293,86.0163599,2.37544143e-05
288.40315,86.0163599,2.43077238e-05
295.120923,86.0163599,2.48739211e-05
301.995172,86.0163599,2.54533072e-05
309.029543,86.0163599,2.60461825e-05
316.227766,86.0163599,2.66528751e-05
323.593657,86.0163599,2.72736899e-05
331.131121,86.0163599,2.7908974e-05
338.844156,86.0163599,2.85590527e-05
346.73685,86.0163599,2.92242727e-05
354.813389,86.0163599,2.99049883e-05
363.078055,86.0163599,3.06015626e-05
371.535229,86.0163599,3.13143527e-05
380.189396,86.0163599,3.20437528e-05
389.045145,86.0163599,3.27901396e-05
398.107171,86.0163599,3.35539127e-05
407.380278,86.0163599,3.4335475e-05
416.869383,86.0163599,3.51352405e-05
426.579519,86.0163599,3.59536345e-05
436.515832,86.0163599,3.67910954e-05
446.683592,86.0163599,3.76480547e-05
457.08819,86.0163599,3.85249778e-05
467.735141,86.0163599,3.94223263e-05
478.630092,86.0163599,4.03405743e-05
489.778819,86.0163599,4.12802102e-05
501.187234,86.0163599,4.22417356e-05
512.861384,86.0163599,4.32256516e-05
524.80746,86.0163599,4.42325014e-05
537.031796,86.0163599,4.52627768e-05
549.540874,86.0163599,4.63170664e-05
562.341325,86.0163599,4.73959071e-05
575.439937,86.0163599,4.84998791e-05
588.843655,86.0163599,4.96295591e-05
602.559586,86.0163599,5.07855482e-05
616.595002,86.0163599,5.1968462e-05
630.957344,86.0163599,5.31789376e-05
645.654229,86.0163599,5.44176006e-05
660.693448,86.0163599,5.56851123e-05
676.082975,86.0163599,5.69821432e-05
691.830971,86.0163599,5.83093834e-05
707.945784,86.0163599,5.96675412e-05
724.43596,86.0163599,6.10573314e-05
741.310241,86.0163599,6.24794875e-05
758.577575,86.0163599,6.39347656e-05
776.247117,86.0163599,6.5423937e-05
794.328235,86.0163599,6.69477851e-05
812.830516,86.0163599,6.85071277e-05
831.763771,86.0163599,7.01027904e-05
851.138038,86.0163599,7.17356241e-05
870.96359,86.0163599,7.34064714e-05
891.250938,86.0163599,7.51162386e-05
912.010839,86.0163599,7.68658369e-05
933.254301,86.0163599,7.86561563e-05
954.992586,86.0163599,8.04881738e-05
977.237221,86.0163599,8.23628781e-05
1000.0,86.0163599,8.42812298e-05
1023.29299,86.0163599,8.62442505e-05
1047.12855,86.0163599,8.82529843e-05
1071.51931,86.0163599,9.03085006e-05
1096.4782,86.0163599,9.24118789e-05
1122.01845,86.0163599,9.45642464e-05
1148.15362,86.0163599,9.67667506e-05
1174.89755,86.0163599,9.90205215e-05
1202.26443,86.0163599,0.00010132678
1230.26877,86.0163599,0.000103686758
1258.92541,86.0163599,0.000106101674
1288.24955,86.01636,0.00010857281
1318.25674,86.01636,0.000111101522
1348.96288,86.01636,0.000113689073
1380.38426,86.01636,0.000116336917
1412.53754,86.01636,0.000119046368
1445.43977,86.01636,0.000121818927
1479.10839,86.01636,0.000124656075
1513.56125,86.01636,0.000127559227
1548.81662,86.01636,0.000130529975
1584.89319,86.01636,0.000133569903
1621.8101,86.01636,0.000136680592
1659.58691,86.01636,0.000139863707
1698.24365,86.01636,0.000143120953
1737.80083,86.01636,0.000146453989
1778.27941,86.01636,0.000149864597
1819.70086,86.01636,0.000153354664
1862.08714,86.0163601,0.000156925884
1905.46072,86.0163601,0.000160580299
1949.8446,86.0163601,0.000164319718
1995.26231,86.0163601,0.000168146178
2041.73794,86.0163601,0.000172061734
2089.29613,86.0163601,0.000176068415
2137.96209,86.0163601,0.000180168337
2187.76162,86.0163601,0.00018436364
2238.72114,86.0163601,0.00018865657
2290.86765,86.0163602,0.000193049442
2344.22882,86.0163602,0.000197544484
2398.83292,86.0163602,0.000202144093
2454.70892,86.0163602,0.000206850734
2511.88643,86.0163602,0.000211666913
2570.39578,86.0163602,0.000216595037
2630.26799,86.0163602,0.000221637895
2691.5348,86.0163603,0.000226798045
2754.2287,86.0163603,0.000232078144
2818.38293,86.0163603,0.000237481086
2884.0315,86.0163603,0.00024300964
2951.20923,86.0163603,0.000248666781
3019.95172,86.0163604,0.000254455447
3090.29543,86.0163604,0.00026037868
3162.27766,86.0163604,0.000266439637
3235.93657,86.0163604,0.000272641464
3311.31121,86.0163605,0.000278987512
3388.44156,86.0163605,0.000285480902
3467.3685,86.0163605,0.000292125361
3548.13389,86.0163606,0.000298924088
3630.78055,86.0163606,0.000305880829
3715.35229,86.0163606,0.000312999094
3801.89396,86.0163607,0.000320282816
3890.45145,86.0163607,0.000327735618
3981.07171,86.0163608,0.000335361469
4073.80278,86.0163608,0.000343164366
4168.69383,86.0163608,0.000351148451
4265.79519,86.0163609,0.000359317891
4365.15832,86.0163609,0.0003676768
4466.83592,86.016361,0.000376229746
4570.8819,86.016361,0.000384981014
4677.35141,86.0163611,0.000393935247
4786.30092,86.0163612,0.000403097211
4897.78819,86.0163612,0.000412471536
5011.87234,86.0163613,0.00042206318
5128.61384,86.0163613,0.000431877047
5248.0746,86.0163614,0.000441918379
5370.31796,86.0163615,0.000452192183
5495.40874,86.0163616,0.000462703966
5623.41325,86.0163616,0.00047345898
5754.39937,86.0163617,0.000484462962
5888.43655,86.0163618,0.000495721436
6025.59586,86.0163619,0.000507240448
6165.95002,86.016362,0.0005190257
6309.57344,86.0163621,0.000531083374
6456.54229,86.0163622,0.000543419511
6606.93448,86.0163623,0.000556040822
6760.82975,86.0163624,0.000568953304
6918.30971,86.0163626,0.000582163713
7079.45784,86.0163627,0.000595678931
7244.3596,86.0163628,0.000609505707
7413.10241,86.0163629,0.000623651154
7585.77575,86.0163631,0.000638122409
7762.47117,86.0163632,0.000652926657
7943.28235,86.0163634,0.000668071585
8128.30516,86.0163636,0.000683564906
8317.63771,86.0163637,0.00069941408
8511.38038,86.0163639,0.000715627478
8709.6359,86.0163641,0.000732212733
8912.50938,86.0163643,0.000749178535
9120.10839,86.0163645,0.000766532992
9332.54301,86.0163647,0.000784284872
9549.92586,86.016365,0.000802443182
9772.37221,86.0163652,0.000821016587
10000.0,86.0163655,0.000840014024
10232.9299,86.0163657,0.000859445321
10471.2855,86.016366,0.000879319335
10715.1931,86.0163663,0.00089964621
10964.782,86.0163666,0.000920435673
11220.1845,86.0163669,0.000941697546
11481.5362,86.0163672,0.000963442261
11748.9755,86.0163676,0.000985679954
12022.6443,86.0163679,0.00100842109
12302.6877,86.0163683,0.00103167666
12589.2541,86.0163687,0.00105545762
12882.4955,86.0163691,0.00107977489
13182.5674,86.0163696,0.00110463969
13489.6288,86.01637,0.00113006345
13803.8426,86.0163705,0.001156058
14125.3754,86.016371,0.00118263482
14454.3977,86.0163715,0.00120980637
14791.0839,86.016372,0.00123758446
15135.6125,86.0163726,0.00126598139
15488.1662,86.0163732,0.00129500964
15848.9319,86.0163738,0.001324682
16218.101,86.0163744,0.00135501104
16595.8691,86.0163751,0.00138601031
16982.4365,86.0163758,0.00141769198
17378.0083,86.0163766,0.00145006991
17782.7941,86.0163773,0.00148315753
18197.0086,86.0163781,0.00151696766
18620.8714,86.016379,0.00155151499
19054.6072,86.0163799,0.00158681224
19498.446,86.0163808,0.00162287365
19952.6231,86.0163817,0.00165971279
20417.3794,86.0163827,0.00169734446
20892.9613,86.0163838,0.00173578212
21379.6209,86.0163849,0.0017750394
21877.6162,86.016386,0.00181513128
22387.2114,86.0163872,0.00185607118
22908.6765,86.0163885,0.00189787433
23442.2882,86.0163898,0.00194055328
23988.3292,86.0163911,0.00198412315
24547.0892,86.0163926,0.00202859836
25118.8643,86.016394,0.00207399197
25703.9578,86.0163956,0.00212031857
26302.6799,86.0163972,0.00216759104
26915.348,86.0163989,0.00221582328
27542.287,86.0164006,0.00226502921
28183.8293,86.0164024,0.00231522232
28840.315,86.0164043,0.00236641405
29512.0923,86.0164063,0.00241861869
30199.5172,86.0164084,0.00247184829
30902.9543,86.0164105,0.00252611531
31622.7766,86.0164128,0.00258143059
32359.3657,86.0164151,0.00263780673
33113.1121,86.0164175,0.00269525422
33884.4156,86.0164201,0.00275378396
34673.685,86.0164227,0.00281340577
35481.3389,86.0164254,0.0028741303
36307.8055,86.0164283,0.00293596579
37153.5229,86.0164312,0.00299892139
38018.9396,86.0164343,0.00306300511
38904.5145,86.0164375,0.00312822407
39810.7171,86.0164408,0.00319458604
40738.0278,86.0164442,0.0032620966
41686.9383,86.0164478,0.00333076218
42657.9519,86.0164515,0.0034005865
43651.5832,86.0164553,0.00347157562
44668.3592,86.0164593,0.00354373121
45708.819,86.0164634,0.00361705833
46773.5141,86.0164677,0.00369155801
47863.0092,86.0164721,0.00376723206
48977.8819,86.0164767,0.0038440825
50118.7234,86.0164814,0.00392211008
51286.1384,86.0164863,0.00400131309
52480.746,86.0164914,0.00408169324
53703.1796,86.0164966,0.00416324942
54954.0874,86.016502,0.00424597784
56234.1325,86.0165075,0.00432988186
57543.9937,86.0165133,0.00441495614
58884.3655,86.0165192,0.00450120068
60255.9586,86.0165252,0.00458861355
61659.5002,86.0165315,0.0046771951
63095.7344,86.016538,0.00476694372
64565.4229,86.0165446,0.00485785897
66069.3448,86.0165514,0.00494994393
67608.2975,86.0165584,0.00504319627
69183.0971,86.0165655,0.00513762159
70794.5784,86.0165729,0.00523322162
72443.596,86.0165804,0.0053300068
74131.0241,86.0165882,0.00542798207
75857.7575,86.0165961,0.00552715777
77624.7117,86.0166042,0.0056275468
79432.8235,86.0166124,0.0057291642
81283.0516,86.0166209,0.00583203147
83176.3771,86.0166295,0.00593616196
85113.8038,86.0166383,0.00604159332
87096.359,86.0166473,0.00614834692
89125.0938,86.0166565,0.00625645226
91201.0839,86.0166658,0.00636595664
93325.4301,86.0166753,0.00647689783
95499.2586,86.016685,0.00658932467
97723.7221,86.0166948,0.00670328499
100000.0,86.0167048,0.00681885405
102329.299,86.016715,0.00693607417
104712.855,86.0167253,0.00705502289
107151.931,86.0167358,0.00717579967
109647.82,86.0167465,0.00729844063
112201.845,86.0167573,0.0074230828
114815.362,86.0167683,0.00754978909
117489.755,86.0167794,0.0076786654
120226.443,86.0167907,0.00780983398
123026.877,86.0168022,0.00794339945
125892.541,86.0168139,0.00807947706
128824.955,86.0168257,0.00821821124
131825.674,86.0168377,0.0083597108
134896.288,86.0168499,0.00850414735
138038.426,86.0168623,0.00865164922
141253.754,86.016875,0.00880233189
144543.977,86.0168878,0.00895643067
147910.839,86.0169009,0.0091140252
151356.125,86.0169142,0.00927531933
154881.662,86.0169277,0.00944051649
158489.319,86.0169416,0.0096097586
162181.01,86.0169557,0.0097832198
165958.691,86.0169702,0.00996108414
169824.365,86.0169849,0.0101435854
173780.083,86.0170001,0.0103308607
177827.941,86.0170156,0.0105231545
181970.086,86.0170315,0.0107206362
186208.714,86.0170479,0.0109235349
190546.072,86.0170647,0.0111320289
194984.46,86.017082,0.0113463438
199526.231,86.0170998,0.0115666843
204173.794,86.0171182,0.0117933038
208929.613,86.0171372,0.012026403
213796.209,86.0171569,0.0122661949
218776.162,86.0171772,0.0125129319
223872.114,86.0171983,0.0127668243
229086.765,86.0172201,0.0130281367
234422.882,86.0172428,0.0132971025
239883.292,86.0172663,0.0135739582
245470.892,86.0172907,0.0138589573
251188.643,86.0173161,0.0141524021
257039.578,86.0173426,0.0144544767
263026.799,86.0173701,0.0147655383
269153.48,86.0173988,0.0150858067
275422.87,86.0174288,0.0154156083
281838.293,86.01746,0.0157552055
288403.15,86.0174925,0.016104951
295120.923,86.0175265,0.0164651359
301995.172,86.017562,0.016836078
