Time_s,Time_ns,Vin_V,Vout_V,Vout_AC_V
2.31910359e-07,0.38581904548312107,4.18750669e-06,-13.2212559,2.037866132252253
2.32615145e-07,1.0906050454831178,1.18117711e-05,-13.2430331,2.016088932252252
2.33563735e-07,2.03919504548313,2.19563108e-05,-13.2695645,1.9895575322522525
2.35010763e-07,3.4862230454831256,3.69477113e-05,-13.3051092,1.9540128322522516
2.36457791e-07,4.933251045483121,5.10293367e-05,-13.3377924,1.9213296322522524
2.37028827e-07,5.504287045483131,5.62588773e-05,-13.3505756,1.9085464322522512
2.37470449e-07,5.945909045483135,6.01560581e-05,-13.3607245,1.8983975322522522
2.37706133e-07,6.18159304548313,6.21798863e-05,-13.3662777,1.8928443322522526
2.37904398e-07,6.379858045483124,6.3850937e-05,-13.371033,1.8880890322522514
2.38030839e-07,6.50629904548312,6.49012276e-05,-13.3741045,1.8850175322522524
2.38182033e-07,6.657493045483121,6.61410661e-05,-13.3778116,1.8813104322522527
2.38346467e-07,6.821927045483134,6.74692431e-05,-13.3818841,1.8772379322522514
2.3844684e-07,6.9223000454831185,6.82694425e-05,-13.3843925,1.8747295322522515
2.38524186e-07,6.999646045483111,6.88805398e-05,-13.3863383,1.8727837322522518
2.38592352e-07,7.067812045483102,6.94150831e-05,-13.3880627,1.8710593322522513
2.38656679e-07,7.132139045483143,6.9916037e-05,-13.3896973,1.8694247322522521
2.38724017e-07,7.199477045483149,7.04367839e-05,-13.3914138,1.8677082322522516
2.388012e-07,7.276660045483132,7.10290356e-05,-13.3933832,1.8657388322522515
2.38899071e-07,7.374531045483145,7.17728646e-05,-13.3958737,1.8632483322522528
2.38994051e-07,7.4695110454831015,7.24869726e-05,-13.3982771,1.8608449322522524
2.39114283e-07,7.589743045483126,7.33798789e-05,-13.4013039,1.8578181322522518
2.39250813e-07,7.726273045483138,7.4378656e-05,-13.4047483,1.8543737322522524
2.39381713e-07,7.857173045483109,7.53209139e-05,-13.4080924,1.8510296322522528
2.39491114e-07,7.966574045483126,7.6096752e-05,-13.4109347,1.8481873322522517
2.39602008e-07,8.077468045483105,7.68722288e-05,-13.4138592,1.8452628322522528
2.397312e-07,8.206660045483128,7.77616013e-05,-13.417296,1.8418260322522517
2.39880297e-07,8.355757045483145,7.87689847e-05,-13.4212546,1.8378674322522528
2.40012019e-07,8.487479045483134,7.96418161e-05,-13.4247198,1.834402232252252
2.40185163e-07,8.660623045483138,8.07643251e-05,-13.4292377,1.8298843322522522
2.40344621e-07,8.8200810454831,8.17728764e-05,-13.4334034,1.8257186322522525
2.4054199e-07,9.0174500454831,8.29872497e-05,-13.4386226,1.8204994322522516
2.40716983e-07,9.192443045483142,8.4032105e-05,-13.4433116,1.8158104322522526
2.40931302e-07,9.406762045483111,8.52704218e-05,-13.4490841,1.8100379322522517
2.41169849e-07,9.645309045483142,8.65944245e-05,-13.4554896,1.8036324322522521
2.4140686e-07,9.882320045483107,8.78524018e-05,-13.4618302,1.7972918322522524
2.41694328e-07,10.169788045483145,8.9300072e-05,-13.4695357,1.7895863322522523
2.42108175e-07,10.583635045483112,9.12311441e-05,-13.4806906,1.7784314322522512
2.42506265e-07,10.981725045483149,9.29150204e-05,-13.4914444,1.7676776322522514
2.42902779e-07,11.378239045483133,9.44197784e-05,-13.5021451,1.7569769322522522
2.43169729e-07,11.645189045483122,9.53344856e-05,-13.5093425,1.7497795322522514
2.43462147e-07,11.937607045483116,9.62445674e-05,-13.5172241,1.741897932252252
2.4378351e-07,12.25897004548313,9.71328559e-05,-13.5258808,1.7332412322522526
2.43980146e-07,12.455606045483117,9.76181593e-05,-13.5311727,1.7279493322522512
2.44172618e-07,12.64807804548314,9.80501139e-05,-13.5363469,1.7227751322522522
2.44415025e-07,12.890485045483146,9.85332166e-05,-13.5428546,1.716267432252252
2.44632335e-07,13.107795045483114,9.89083171e-05,-13.5486806,1.7104414322522512
2.44819354e-07,13.294814045483102,9.91870755e-05,-13.5536895,1.7054325322522512
2.45039051e-07,13.5145110454831,9.94623156e-05,-13.5595705,1.6995515322522525
2.45299831e-07,13.775291045483101,9.97155898e-05,-13.5665575,1.692564532252252
2.45613616e-07,14.0890760454831,9.99144151e-05,-13.5750065,1.6841155322522514
2.45937753e-07,14.413213045483118,9.99980845e-05,-13.5838519,1.6752701322522512
2.46166964e-07,14.64242404548311,9.99825307e-05,-13.5902383,1.6688837322522527
2.46417128e-07,14.892588045483143,9.98949154e-05,-13.5974376,1.6616844322522528
2.46644495e-07,15.119955045483117,9.97513812e-05,-13.6043581,1.6547639322522514
2.46851254e-07,15.326714045483138,9.95681023e-05,-13.6115762,1.647545832252252
2.4700128e-07,15.476740045483139,9.94037082e-05,-13.6223852,1.636736832252252
2.47102562e-07,15.578022045483138,9.92778152e-05,-13.6329814,1.6261406322522518
2.47203837e-07,15.67929704548311,9.91399322e-05,-13.643082,1.6160400322522523
2.47265024e-07,15.740484045483145,9.90508216e-05,-13.6470259,1.612096132252253
2.47318141e-07,15.793601045483125,9.89699192e-05,-13.6478059,1.6113161322522522
2.47368809e-07,15.844269045483118,9.88896798e-05,-13.6454887,1.6136333322522525
2.47420856e-07,15.896316045483134,9.88041427e-05,-13.6397613,1.619360732252252
2.47480179e-07,15.95563904548313,9.87028017e-05,-13.6296823,1.6294397322522514
2.47561545e-07,16.037005045483145,9.85571485e-05,-13.6128573,1.6462647322522521
2.47622297e-07,16.097757045483135,9.84433838e-05,-13.6005298,1.6585922322522517
2.47675986e-07,16.151446045483127,9.83392784e-05,-13.591657,1.6674650322522524
2.47728686e-07,16.20414604548313,9.82338437e-05,-13.5860749,1.6730471322522522
2.47782257e-07,16.25771704548312,9.8123372e-05,-13.5842158,1.6749062322522512
2.47855248e-07,16.330708045483142,9.79675132e-05,-13.5873855,1.6717365322522522
2.47944775e-07,16.420235045483118,9.77679469e-05,-13.5964048,1.6627172322522519
2.4802538e-07,16.500840045483127,9.75803681e-05,-13.6046388,1.654483232252252
2.48085237e-07,16.5606970454831,9.74362398e-05,-13.6083116,1.6508104322522517
2.4813661e-07,16.612070045483108,9.73092567e-05,-13.6085104,1.650611632252252
2.48185458e-07,16.660918045483115,9.71857098e-05,-13.6056228,1.6534992322522513
2.48234524e-07,16.709984045483118,9.70588598e-05,-13.5997313,1.6593907322522519
2.48282044e-07,16.757504045483127,9.6933382e-05,-13.5916473,1.667474732252252
2.48350719e-07,16.82617904548311,9.67474875e-05,-13.5777718,1.6813502322522513
2.48421553e-07,16.897013045483146,9.65501183e-05,-13.5636188,1.6955032322522516
2.48490735e-07,16.966195045483115,9.63518374e-05,-13.5527191,1.706402932252253
2.48577105e-07,17.052565045483124,9.60966742e-05,-13.5461208,1.7130012322522514
2.48673023e-07,17.14848304548315,9.58034006e-05,-13.5484963,1.710625732252252
2.48778923e-07,17.254383045483117,9.54675473e-05,-13.559568,1.6995540322522515
2.48872123e-07,17.347583045483127,9.5161529e-05,-13.5721388,1.6869832322522527
2.48964728e-07,17.44018804548315,9.48478182e-05,-13.5829858,1.6761362322522526
2.49070898e-07,17.546358045483146,9.44763621e-05,-13.590157,1.6689650322522525
2.49192303e-07,17.667763045483138,9.40362301e-05,-13.5916576,1.6674644322522525
2.49308233e-07,17.783693045483123,9.36006975e-05,-13.5897165,1.6694055322522523
2.4945805e-07,17.933510045483104,9.30159152e-05,-13.5889631,1.6701589322522512
2.49597037e-07,18.072497045483136,9.24514029e-05,-13.5931798,1.6659422322522524
2.49785715e-07,18.261175045483107,9.16514141e-05,-13.604706,1.6544160322522519
2.49991869e-07,18.46732904548311,9.07333854e-05,-13.6179923,1.641129732252253
2.50186024e-07,18.661484045483146,8.98272334e-05,-13.6271803,1.631941732252253
2.50462518e-07,18.937978045483135,8.84680293e-05,-13.6361044,1.6230176322522514
2.50763242e-07,19.238702045483137,8.68992794e-05,-13.6460516,1.6130704322522522
2.51074854e-07,19.55031404548314,8.51760696e-05,-13.6587107,1.6004113322522517
2.51521369e-07,19.996829045483132,8.25374998e-05,-13.6776061,1.5815159322522518
2.52059843e-07,20.535303045483133,7.90982333e-05,-13.6988222,1.5602998322522517
2.52674535e-07,21.14999504548311,7.48426283e-05,-13.7223259,1.5367961322522525
2.53370702e-07,21.84616204548313,6.96217738e-05,-13.7490536,1.5100684322522522
2.5445717e-07,22.932630045483148,6.06916607e-05,-13.7901823,1.4689397322522524
2.55904198e-07,24.379658045483115,4.75115744e-05,-13.8435392,1.4155828322522517
2.57351226e-07,25.826686045483136,3.31615955e-05,-13.8954607,1.3636613322522528
2.58798254e-07,27.273714045483107,1.79950682e-05,-13.9459694,1.3131526322522529
2.60245282e-07,28.720742045483128,2.38544258e-06,-13.9950734,1.2640486322522513
2.6169231e-07,30.16777004548315,-1.32829205e-05,-14.0427958,1.2163262322522517
2.63139338e-07,31.61479804548312,-2.86242141e-05,-14.0891581,1.1699639322522515
2.64586366e-07,33.06182604548314,-4.32606845e-05,-14.1341803,1.1249417322522515
2.66033394e-07,34.50885404548311,-5.68319335e-05,-14.1778824,1.0812396322522524
2.67480422e-07,35.95588204548313,-6.90037917e-05,-14.2202842,1.038837832252252
2.6892745e-07,37.402910045483104,-7.94765477e-05,-14.2614051,0.9977169322522528
2.70374478e-07,38.84993804548312,-8.79923276e-05,-14.3012641,0.9578579322522529
2.71821506e-07,40.296966045483146,-9.43414445e-05,-14.3398801,0.9192419322522518
2.73268534e-07,41.74399404548311,-9.83675621e-05,-14.3772608,0.8818612322522519
2.74715562e-07,43.19102204548314,-9.99715441e-05,-14.4134223,0.8456997322522515
2.75713237e-07,44.18869704548314,-9.96436717e-05,-14.437665,0.8214570322522512
2.76815379e-07,45.290839045483104,-9.79246792e-05,-14.4638036,0.7953184322522517
2.78262407e-07,46.73786704548313,-9.3548584e-05,-14.4971013,0.7620207322522514
2.79684963e-07,48.16042304548311,-8.70002974e-05,-14.5287195,0.7304025322522527
2.81131991e-07,49.607451045483124,-7.82162337e-05,-14.5597634,0.6993586322522525
2.82023085e-07,50.49854504548313,-7.18329108e-05,-14.5783264,0.6807956322522521
2.82546562e-07,51.02202204548315,-6.77657461e-05,-14.5890246,0.6700974322522519
2.82889036e-07,51.364496045483136,-6.49856567e-05,-14.5959586,0.6631634322522526
2.83096453e-07,51.57191304548311,-6.32580074e-05,-14.6001402,0.6589818322522518
2.83232994e-07,51.70845404548311,-6.21031474e-05,-14.6028853,0.6562367322522515
2.8337904e-07,51.85450004548312,-6.0852796e-05,-14.6058083,0.6533137322522524
2.83470501e-07,51.94596104548312,-6.00619596e-05,-14.6076278,0.6514942322522526
2.83552297e-07,52.02775704548311,-5.93496744e-05,-14.6092448,0.6498772322522512
2.83631571e-07,52.10703104548311,-5.86548919e-05,-14.6108006,0.6483214322522528
2.83713741e-07,52.18920104548314,-5.79301393e-05,-14.6124016,0.646720432252252
2.83820489e-07,52.29594904548311,-5.69817238e-05,-14.6144695,0.6446525322522518
2.83960823e-07,52.4362830454831,-5.57233009e-05,-14.6171885,0.6419335322522528
2.84046766e-07,52.5222260454831,-5.49462192e-05,-14.6188631,0.6402589322522516
2.84120393e-07,52.5958530454831,-5.42766874e-05,-14.620308,0.6388140322522524
2.84188606e-07,52.6640660454831,-5.36532909e-05,-14.621656,0.6374660322522523
2.84257275e-07,52.73273504548312,-5.30227524e-05,-14.6230201,0.6361019322522523
2.84328394e-07,52.80385404548313,-5.23666233e-05,-14.6244355,0.6346865322522515
2.84420676e-07,52.896136045483146,-5.15105884e-05,-14.6262638,0.6328582322522518
2.84497555e-07,52.97301504548314,-5.07934912e-05,-14.6277708,0.6313512322522516
2.84578738e-07,53.054198045483126,-5.00324139e-05,-14.6293389,0.6297831322522516
2.84653853e-07,53.12931304548312,-4.93247545e-05,-14.630767,0.6283550322522515
2.84755001e-07,53.23046104548311,-4.83666691e-05,-14.6326633,0.6264587322522512
2.84866312e-07,53.341772045483125,-4.73055811e-05,-14.6347371,0.6243849322522514
2.84966943e-07,53.44240304548315,-4.63403498e-05,-14.6366214,0.6225006322522528
2.85047027e-07,53.52248704548312,-4.55682477e-05,-14.6381375,0.6209845322522529
2.85117785e-07,53.59324504548314,-4.48831942e-05,-14.6394926,0.6196294322522515
2.85186237e-07,53.66169704548311,-4.42179382e-05,-14.640816,0.6183060322522529
2.85254642e-07,53.73010204548312,-4.35507045e-05,-14.6421458,0.6169762322522523
2.85322498e-07,53.79795804548315,-4.28864588e-05,-14.6434653,0.6156567322522513
2.8539138e-07,53.866840045483144,-4.2209778e-05,-14.6447976,0.6143244322522516
2.85469197e-07,53.9446570454831,-4.14424937e-05,-14.6462855,0.6128365322522527
2.85556341e-07,54.031801045483114,-4.05797393e-05,-14.6479248,0.6111972322522519
2.85651514e-07,54.12697404548313,-3.96333394e-05,-14.6496848,0.6094372322522528
2.8576262e-07,54.23808004548314,-3.85231604e-05,-14.6517151,0.6074069322522515
2.85896926e-07,54.37238604548313,-3.7173703e-05,-14.6541675,0.6049545322522523
2.86003306e-07,54.47876604548315,-3.60992103e-05,-14.6561259,0.6029961322522528
2.86099096e-07,54.57455604548313,-3.51275652e-05,-14.6579071,0.6012149322522529
2.86195117e-07,54.6705770454831,-3.41497609e-05,-14.6597059,0.5994161322522515
2.86302528e-07,54.7779880454831,-3.30515769e-05,-14.6617209,0.5974011322522514
2.86414582e-07,54.890042045483106,-3.19011352e-05,-14.6638094,0.5953126322522522
2.86524415e-07,54.9998750454831,-3.07689237e-05,-14.6658315,0.5932905322522526
2.86644607e-07,55.12006704548314,-2.95249131e-05,-14.6680141,0.5911079322522514
2.86785037e-07,55.26049704548311,-2.80650794e-05,-14.6705377,0.5885843322522515
2.869339e-07,55.409360045483126,-2.65104721e-05,-14.6732057,0.5859163322522516
2.87113132e-07,55.58859204548314,-2.4629569e-05,-14.6764302,0.5826918322522516
2.87264025e-07,55.73948504548311,-2.30388007e-05,-14.6791541,0.5799679322522522
2.87450333e-07,55.92579304548311,-2.10661958e-05,-14.6825078,0.5766142322522523
2.87618717e-07,56.09417704548311,-1.92759274e-05,-14.6855128,0.5736092322522524
2.8779094e-07,56.2664000454831,-1.74381912e-05,-14.6885553,0.5705667322522512
2.87997775e-07,56.473235045483136,-1.52231278e-05,-14.6921803,0.5669417322522516
2.88217575e-07,56.69303504548314,-1.28608204e-05,-14.6960165,0.5631055322522514
2.88452109e-07,56.92756904548312,-1.03321222e-05,-14.7000977,0.5590243322522515
2.88732744e-07,57.20820404548314,-7.29771542e-06,-14.704951,0.5541710322522526
2.89025597e-07,57.50105704548313,-4.12402592e-06,-14.7099667,0.5491553322522513
2.89368925e-07,57.84438504548314,-3.9825674e-07,-14.7157858,0.5433362322522512
2.89787761e-07,58.26322104548311,4.14715243e-06,-14.7228099,0.5363121322522524
2.9019178e-07,58.667240045483105,8.52375027e-06,-14.7294896,0.5296324322522512
2.90515137e-07,58.99059704548315,1.20151515e-05,-14.7342789,0.5248431322522524
2.90829082e-07,59.304542045483146,1.53907986e-05,-14.7383018,0.5208202322522517
2.91169035e-07,59.644495045483154,1.9025833e-05,-14.744491,0.514631032252252
2.91467316e-07,59.942776045483136,2.21940911e-05,-14.7545049,0.5046171322522515
2.91760869e-07,60.23632904548312,2.52894456e-05,-14.7693348,0.48978723225225274
2.91935236e-07,60.41069604548311,2.71160825e-05,-14.7798408,0.4792812322522515
2.92085416e-07,60.560876045483134,2.86815887e-05,-14.7891575,0.4699645322522521
2.92249817e-07,60.72527704548314,3.03865784e-05,-14.7988995,0.46022253225225285
2.92395013e-07,60.87047304548314,3.18843631e-05,-14.8068891,0.4522329322522527
2.92518312e-07,60.99377204548312,3.31500557e-05,-14.8133234,0.44579863225225225
2.92630904e-07,61.10636404548312,3.43006668e-05,-14.8191247,0.43999733225225235
2.92756038e-07,61.231498045483136,3.55734305e-05,-14.8257441,0.4333779322522524
2.92893858e-07,61.36931804548311,3.69676121e-05,-14.8333864,0.42573563225225186
2.93061385e-07,61.536845045483126,3.86511418e-05,-14.8430087,0.41611333225225167
2.93223144e-07,61.69860404548312,4.02645855e-05,-14.8522892,0.40683283225225253
2.93419942e-07,61.89540204548312,4.2210727e-05,-14.8631968,0.3959252322522513
2.93644023e-07,62.119483045483136,4.44031661e-05,-14.8751974,0.3839246322522527
2.93861445e-07,62.336905045483135,4.65053601e-05,-14.8867918,0.3723302322522528
2.94103064e-07,62.57852404548314,4.88110627e-05,-14.8998888,0.3592332322522527
2.9445553e-07,62.930990045483114,5.21139025e-05,-14.9191298,0.3399922322522517
2.94796487e-07,63.27194704548311,5.52363661e-05,-14.9375388,0.3215832322522516
2.95190124e-07,63.665584045483136,5.87468912e-05,-14.9585394,0.3005826322522527
2.95640844e-07,64.11630404548313,6.26344226e-05,-14.9824702,0.2766518322522522
2.96171534e-07,64.64699404548311,6.70188606e-05,-15.0105134,0.24860863225225138
2.97091345e-07,65.56680504548311,7.40834148e-05,-15.058578,0.20054403225225137
2.98045118e-07,66.52057804548315,8.06286148e-05,-15.1077097,0.15141233225225292
2.99492146e-07,67.96760604548312,8.8889443e-05,-15.1809411,0.07818093225225198
3.00939174e-07,69.41463404548314,9.49615183e-05,-15.2526013,0.006520732252251804
3.02386202e-07,70.86166204548311,9.8695326e-05,-15.322708,-0.06358596774774838
3.0383323e-07,72.30869004548313,9.99989276e-05,-15.3912829,-0.13216086774774816
3.05280258e-07,73.7557180454831,9.88402238e-05,-15.4583467,-0.19922466774774783
3.06727286e-07,75.20274604548312,9.5247746e-05,-15.5239198,-0.26479776774774777
3.08174314e-07,76.64977404548314,8.93099527e-05,-15.5880225,-0.32890046774774717
3.09621342e-07,78.09680204548312,8.11730522e-05,-15.6506745,-0.3915524677477471
3.1106837e-07,79.54383004548313,7.10374019e-05,-15.7118956,-0.452773567747748
3.12515398e-07,80.99085804548311,5.91525752e-05,-15.771705,-0.5125829677477487
3.13962426e-07,82.43788604548313,4.58112159e-05,-15.830122,-0.5709999677477473
3.15409454e-07,83.88491404548314,3.13418325e-05,-15.8871653,-0.6280432677477474
3.15994625e-07,84.47008504548313,2.52505062e-05,-15.9098461,-0.6507240677477473
3.16417752e-07,84.89321204548315,2.07811017e-05,-15.9261086,-0.6669865677477471
3.16820703e-07,85.29616304548314,1.64839156e-05,-15.9414888,-0.6823667677477481
3.17080179e-07,85.55563904548312,1.36995798e-05,-15.9513377,-0.6922156677477478
3.17356932e-07,85.83239204548315,1.0717923e-05,-15.9617951,-0.7026730677477477
3.17489516e-07,85.96497604548314,9.28591022e-06,-15.9667876,-0.7076655677477479
3.17609229e-07,86.08468904548313,7.99124679e-06,-15.9712858,-0.7121637677477484
3.17721721e-07,86.19718104548313,6.77345927e-06,-15.9755044,-0.7163823677477481
3.17870999e-07,86.34645904548313,5.15589252e-06,-15.9810903,-0.7219682677477479
3.18106977e-07,86.5824370454831,2.59627052e-06,-15.9898917,-0.7307696677477473
3.18350002e-07,86.82546204548312,-4.15485451e-08,-15.9989192,-0.7397971677477475
3.18656095e-07,87.13155504548311,-3.36366057e-06,-16.0102367,-0.751114667747748
3.18861088e-07,87.33654804548314,-5.58664645e-06,-16.0177831,-0.758661067747747
3.19080868e-07,87.55632804548313,-7.96689088e-06,-16.0258446,-0.7667225677477472
3.19279339e-07,87.75479904548315,-1.01124895e-05,-16.0330986,-0.7739765677477468
3.19518213e-07,87.99367304548315,-1.26885627e-05,-16.0417968,-0.7826747677477481
3.19817837e-07,88.29329704548313,-1.59075186e-05,-16.0526568,-0.7935347677477491
3.20127667e-07,88.60312704548313,-1.92183718e-05,-16.0638282,-0.8047061677477476
3.20747326e-07,89.22278604548312,-2.57711459e-05,-16.085993,-0.8268709677477464
3.21394358e-07,89.8698180454831,-3.24885181e-05,-16.1088849,-0.8497628677477476
3.22688421e-07,91.16388104548311,-4.54102986e-05,-16.1539037,-0.8947816677477487
3.23993214e-07,92.46867404548311,-5.75327608e-05,-16.1982727,-0.9391506677477484
3.25440242e-07,93.91570204548314,-6.96195723e-05,-16.246292,-0.9871699677477483
3.2688727e-07,95.3627300454831,-7.9992119e-05,-16.2930792,-1.033957167747749
3.28334298e-07,96.80975804548312,-8.83949945e-05,-16.338651,-1.0795289677477466
3.29781326e-07,98.25678604548315,-9.4621292e-05,-16.3830237,-1.123901667747747
3.31228354e-07,99.70381404548311,-9.85176994e-05,-16.4262136,-1.1670915677477485
3.32675382e-07,101.15084204548315,-9.99882744e-05,-16.4682369,-1.2091148677477488
3.3412241e-07,102.5978700454831,-9.89968064e-05,-16.5091093,-1.2499872677477466
3.35569438e-07,104.04489804548314,-9.55677087e-05,-16.5488457,-1.289723667747749
3.37016466e-07,105.4919260454831,-8.97854171e-05,-16.5874588,-1.3283367677477482
3.37793319e-07,106.2687790454831,-8.57577594e-05,-16.6077273,-1.3486052677477485
3.38292955e-07,106.76841504548314,-8.28433147e-05,-16.6205928,-1.3614707677477487
3.38601133e-07,107.07659304548314,-8.09236028e-05,-16.6284617,-1.369339667747747
3.38907839e-07,107.38329904548313,-7.8923156e-05,-16.6362421,-1.3771200677477484
3.39138325e-07,107.61378504548314,-7.73621456e-05,-16.6420554,-1.3829333677477482
3.39359541e-07,107.83500104548314,-7.58183604e-05,-16.6476075,-1.3884854677477474
